Freq.	S11(V2)	S12(V2)	S21(V2)	S22(V2)
1.00000000000000e+09	(-5.69595689609232e+00dB,-1.14013309470623e+02°)	(-2.35627541154485e+01dB,4.92693688776031e+01°)	(2.10978963870125e+01dB,1.11008971247780e+02°)	(-5.97502557698869e+00dB,-5.81384288499614e+01°)
1.00023028502082e+09	(-5.69646045752497e+00dB,-1.14029850304965e+02°)	(-2.35618410550637e+01dB,4.92664224740978e+01°)	(2.10964893072091e+01dB,1.11000160334328e+02°)	(-5.97666269158066e+00dB,-5.81448798550301e+01°)
1.00046062307284e+09	(-5.69696395522194e+00dB,-1.14046391882858e+02°)	(-2.35609280866506e+01dB,4.92634766631059e+01°)	(2.10950820142023e+01dB,1.10991349052192e+02°)	(-5.97830010309622e+00dB,-5.81513308697384e+01°)
1.00069101416826e+09	(-5.69746738501311e+00dB,-1.14062934012577e+02°)	(-2.35600151866764e+01dB,4.92605317974276e+01°)	(2.10936745314890e+01dB,1.10982537754158e+02°)	(-5.97993782013868e+00dB,-5.81577815271275e+01°)
1.00092145831930e+09	(-5.69797074679260e+00dB,-1.14079476688064e+02°)	(-2.35591023543842e+01dB,4.92575878873261e+01°)	(2.10922668597903e+01dB,1.10973726450477e+02°)	(-5.98157584291383e+00dB,-5.81642318174015e+01°)
1.00115195553817e+09	(-5.69847404045542e+00dB,-1.14096019903258e+02°)	(-2.35581895890210e+01dB,4.92546449430638e+01°)	(2.10908589998238e+01dB,1.10964915151396e+02°)	(-5.98321417163761e+00dB,-5.81706817307844e+01°)
1.00138250583710e+09	(-5.69897723339746e+00dB,-1.14112563818997e+02°)	(-2.35572769018021e+01dB,4.92517028434833e+01°)	(2.10894509403381e+01dB,1.10956103735746e+02°)	(-5.98485283004897e+00dB,-5.81771310615346e+01°)
1.00161310922831e+09	(-5.69948036208303e+00dB,-1.14129108447150e+02°)	(-2.35563643027512e+01dB,4.92487613880118e+01°)	(2.10880426712737e+01dB,1.10947292002941e+02°)	(-5.98649178635619e+00dB,-5.81835803525473e+01°)
1.00184376572403e+09	(-5.69998338577106e+00dB,-1.14145653578266e+02°)	(-2.35554517575736e+01dB,4.92458211400930e+01°)	(2.10866342268898e+01dB,1.10938480516412e+02°)	(-5.98813108124937e+00dB,-5.81900286844239e+01°)
1.00207447533648e+09	(-5.70048637748886e+00dB,-1.14162199242852e+02°)	(-2.35545392870809e+01dB,4.92428816882105e+01°)	(2.10852255863388e+01dB,1.10929668864628e+02°)	(-5.98977065091179e+00dB,-5.81964771529465e+01°)
1.00230523807790e+09	(-5.70098930463554e+00dB,-1.14178745601397e+02°)	(-2.35536269024798e+01dB,4.92399429113136e+01°)	(2.10838167383783e+01dB,1.10920856926527e+02°)	(-5.99141051905715e+00dB,-5.82029255522108e+01°)
1.00253605396052e+09	(-5.70149209397557e+00dB,-1.14195292611010e+02°)	(-2.35527145814521e+01dB,4.92370052413605e+01°)	(2.10824077052908e+01dB,1.10912045134054e+02°)	(-5.99305074998558e+00dB,-5.82093727669028e+01°)
1.00276692299659e+09	(-5.70199485103029e+00dB,-1.14211840135813e+02°)	(-2.35518023328411e+01dB,4.92340683982612e+01°)	(2.10809984781971e+01dB,1.10903233207106e+02°)	(-5.99469125628519e+00dB,-5.82158200888300e+01°)
1.00299784519833e+09	(-5.70249753912559e+00dB,-1.14228388151590e+02°)	(-2.35508901451127e+01dB,4.92311326030420e+01°)	(2.10795890685955e+01dB,1.10894421366698e+02°)	(-5.99633207021168e+00dB,-5.82222669555338e+01°)
1.00322882057800e+09	(-5.70300012974202e+00dB,-1.14244937002680e+02°)	(-2.35499780522038e+01dB,4.92281973926594e+01°)	(2.10781794425134e+01dB,1.10885609149772e+02°)	(-5.99797320697555e+00dB,-5.82287135174479e+01°)
1.00345984914784e+09	(-5.70350265118997e+00dB,-1.14261486332475e+02°)	(-2.35490660186678e+01dB,4.92252632506578e+01°)	(2.10767696353616e+01dB,1.10876797039862e+02°)	(-5.99961465179325e+00dB,-5.82351596045624e+01°)
1.00369093092010e+09	(-5.70400513992821e+00dB,-1.14278036153479e+02°)	(-2.35481540545293e+01dB,4.92223299764880e+01°)	(2.10753596370796e+01dB,1.10867984836405e+02°)	(-6.00125637277502e+00dB,-5.82416057598398e+01°)
1.00392206590702e+09	(-5.70450749431081e+00dB,-1.14294586772662e+02°)	(-2.35472421721606e+01dB,4.92193975287337e+01°)	(2.10739494352595e+01dB,1.10859172497973e+02°)	(-6.00289844931586e+00dB,-5.82480510281464e+01°)
1.00415325412088e+09	(-5.70500977920836e+00dB,-1.14311137852458e+02°)	(-2.35463303469094e+01dB,4.92164661799994e+01°)	(2.10725390545176e+01dB,1.10850360297158e+02°)	(-6.00454083457008e+00dB,-5.82544957924464e+01°)
1.00438449557391e+09	(-5.70551203515807e+00dB,-1.14327689589348e+02°)	(-2.35454186115090e+01dB,4.92135353879417e+01°)	(2.10711284620849e+01dB,1.10841547691605e+02°)	(-6.00618348799458e+00dB,-5.82609409518010e+01°)
1.00461579027839e+09	(-5.70601415236239e+00dB,-1.14344241921760e+02°)	(-2.35445069328981e+01dB,4.92106057948782e+01°)	(2.10697176909870e+01dB,1.10832735323620e+02°)	(-6.00782650625472e+00dB,-5.82673848386213e+01°)
1.00484713824658e+09	(-5.70651624040865e+00dB,-1.14360794899029e+02°)	(-2.35435953426226e+01dB,4.92076767790101e+01°)	(2.10683067096420e+01dB,1.10823922571391e+02°)	(-6.00946979307161e+00dB,-5.82738291008727e+01°)
1.00507853949074e+09	(-5.70701825854684e+00dB,-1.14377348312965e+02°)	(-2.35426838064601e+01dB,4.92047489029827e+01°)	(2.10668955522365e+01dB,1.10815109997553e+02°)	(-6.01111338946036e+00dB,-5.82802728202336e+01°)
1.00530999402313e+09	(-5.70752014170755e+00dB,-1.14393902487634e+02°)	(-2.35417723475337e+01dB,4.92018219148243e+01°)	(2.10654841956117e+01dB,1.10806297350121e+02°)	(-6.01275734273402e+00dB,-5.82867155938055e+01°)
1.00554150185604e+09	(-5.70802199131262e+00dB,-1.14410457105491e+02°)	(-2.35408609519836e+01dB,4.91988958762419e+01°)	(2.10640726535916e+01dB,1.10797484690792e+02°)	(-6.01440157383229e+00dB,-5.82931583576167e+01°)
1.00577306300174e+09	(-5.70852374229507e+00dB,-1.14427012490248e+02°)	(-2.35399496429198e+01dB,4.91959705353776e+01°)	(2.10626609030303e+01dB,1.10788671767695e+02°)	(-6.01604613003171e+00dB,-5.82996007085737e+01°)
1.00600467747249e+09	(-5.70902545951003e+00dB,-1.14443568306292e+02°)	(-2.35390383957303e+01dB,4.91930461645031e+01°)	(2.10612489685040e+01dB,1.10779858853091e+02°)	(-6.01769096446395e+00dB,-5.83060430303355e+01°)
1.00623634528060e+09	(-5.70952707789369e+00dB,-1.14460124876923e+02°)	(-2.35381272335157e+01dB,4.91901225118236e+01°)	(2.10598368268763e+01dB,1.10771045695175e+02°)	(-6.01933612440453e+00dB,-5.83124849196589e+01°)
1.00646806643832e+09	(-5.71002862573487e+00dB,-1.14476681848341e+02°)	(-2.35372161209182e+01dB,4.91872000600529e+01°)	(2.10584245134692e+01dB,1.10762232776647e+02°)	(-6.02098159525670e+00dB,-5.83189262079275e+01°)
1.00669984095796e+09	(-5.71053007453647e+00dB,-1.14493239562039e+02°)	(-2.35363050917894e+01dB,4.91842783468953e+01°)	(2.10570119943953e+01dB,1.10753419635203e+02°)	(-6.02262739205644e+00dB,-5.83253670442435e+01°)
1.00693166885180e+09	(-5.71103145667100e+00dB,-1.14509797847513e+02°)	(-2.35353941334563e+01dB,4.91813575135199e+01°)	(2.10555992822916e+01dB,1.10744606411998e+02°)	(-6.02427349148085e+00dB,-5.83318076157044e+01°)
1.00716355013213e+09	(-5.71153277203210e+00dB,-1.14526356698787e+02°)	(-2.35344832451661e+01dB,4.91784375701114e+01°)	(2.10541863778752e+01dB,1.10735793117207e+02°)	(-6.02591989373411e+00dB,-5.83382479125892e+01°)
1.00739548481125e+09	(-5.71203398804193e+00dB,-1.14542916273821e+02°)	(-2.35335724380816e+01dB,4.91755183959789e+01°)	(2.10527732699475e+01dB,1.10726979630129e+02°)	(-6.02756662256740e+00dB,-5.83446877281952e+01°)
1.00762747290145e+09	(-5.71253516954050e+00dB,-1.14559476238673e+02°)	(-2.35326616876266e+01dB,4.91726002630564e+01°)	(2.10513599830489e+01dB,1.10718166222686e+02°)	(-6.02921363111815e+00dB,-5.83511274468085e+01°)
1.00785951441503e+09	(-5.71303621491706e+00dB,-1.14576036896365e+02°)	(-2.35317510061259e+01dB,4.91696831302326e+01°)	(2.10499465048186e+01dB,1.10709352853756e+02°)	(-6.03086099902117e+00dB,-5.83575661123186e+01°)
1.00809160936429e+09	(-5.71353722965998e+00dB,-1.14592598114582e+02°)	(-2.35308404024171e+01dB,4.91667667176366e+01°)	(2.10485328263832e+01dB,1.10700539243459e+02°)	(-6.03250863827827e+00dB,-5.83640050168153e+01°)
1.00832375776155e+09	(-5.71403814463361e+00dB,-1.14609160032122e+02°)	(-2.35299298769055e+01dB,4.91638511150902e+01°)	(2.10471189473016e+01dB,1.10691725481604e+02°)	(-6.03415660497651e+00dB,-5.83704434010788e+01°)
1.00855595961910e+09	(-5.71453902466929e+00dB,-1.14625722316002e+02°)	(-2.35290194050355e+01dB,4.91609365943333e+01°)	(2.10457048920936e+01dB,1.10682911839921e+02°)	(-6.03580485225630e+00dB,-5.83768816497562e+01°)
1.00878821494927e+09	(-5.71503977225982e+00dB,-1.14642285450423e+02°)	(-2.35281090217644e+01dB,4.91580227732070e+01°)	(2.10442906257660e+01dB,1.10674097936242e+02°)	(-6.03745345096001e+00dB,-5.83833191615787e+01°)
1.00902052376435e+09	(-5.71554048469919e+00dB,-1.14658848939416e+02°)	(-2.35271986906412e+01dB,4.91551100541370e+01°)	(2.10428761847339e+01dB,1.10665284172981e+02°)	(-6.03910233068329e+00dB,-5.83897565185287e+01°)
1.00925288607668e+09	(-5.71604106448697e+00dB,-1.14675413266520e+02°)	(-2.35262884466128e+01dB,4.91521980550767e+01°)	(2.10414615340147e+01dB,1.10656470168081e+02°)	(-6.04075156227874e+00dB,-5.83961931191227e+01°)
1.00948530189857e+09	(-5.71654160891032e+00dB,-1.14691977936478e+02°)	(-2.35253782532409e+01dB,4.91492871783131e+01°)	(2.10400467100107e+01dB,1.10647656323820e+02°)	(-6.04240107533733e+00dB,-5.84026295455966e+01°)
1.00971777124234e+09	(-5.71704208949491e+00dB,-1.14708543288330e+02°)	(-2.35244681443076e+01dB,4.91463769622592e+01°)	(2.10386316789039e+01dB,1.10638842178600e+02°)	(-6.04405088472909e+00dB,-5.84090659458957e+01°)
1.00995029412032e+09	(-5.71754246957848e+00dB,-1.14725109296995e+02°)	(-2.35235581083226e+01dB,4.91434676274247e+01°)	(2.10372164521490e+01dB,1.10630027952921e+02°)	(-6.04570102310261e+00dB,-5.84155017580302e+01°)
1.01018287054483e+09	(-5.71804278151569e+00dB,-1.14741675793762e+02°)	(-2.35226481326477e+01dB,4.91405593145848e+01°)	(2.10358010423480e+01dB,1.10621213787549e+02°)	(-6.04735146713617e+00dB,-5.84219371697625e+01°)
1.01041550052821e+09	(-5.71854299274238e+00dB,-1.14758242935269e+02°)	(-2.35217382284266e+01dB,4.91376519032322e+01°)	(2.10343854383216e+01dB,1.10612399561966e+02°)	(-6.04900224061112e+00dB,-5.84283719739996e+01°)
1.01064818408279e+09	(-5.71904313971176e+00dB,-1.14774810734428e+02°)	(-2.35208284056423e+01dB,4.91347451932635e+01°)	(2.10329696300509e+01dB,1.10603585076059e+02°)	(-6.05065331126265e+00dB,-5.84348067132279e+01°)
1.01088092122091e+09	(-5.71954321821780e+00dB,-1.14791379003903e+02°)	(-2.35199186409314e+01dB,4.91318395356521e+01°)	(2.10315536408632e+01dB,1.10594770680792e+02°)	(-6.05230468824565e+00dB,-5.84412410231558e+01°)
1.01111371195490e+09	(-5.72004319569806e+00dB,-1.14807947900050e+02°)	(-2.35190089454302e+01dB,4.91289348099283e+01°)	(2.10301374595866e+01dB,1.10585956255685e+02°)	(-6.05395639533996e+00dB,-5.84476746965781e+01°)
1.01134655629712e+09	(-5.72054310860547e+00dB,-1.14824517435872e+02°)	(-2.35180993291207e+01dB,4.91260308160172e+01°)	(2.10287210762031e+01dB,1.10577141600655e+02°)	(-6.05560840025072e+00dB,-5.84541082759760e+01°)
1.01157945425989e+09	(-5.72104295273133e+00dB,-1.14841087424345e+02°)	(-2.35171897686528e+01dB,4.91231279047628e+01°)	(2.10273045140269e+01dB,1.10568327066536e+02°)	(-6.05726071217560e+00dB,-5.84605413972526e+01°)
1.01181240585558e+09	(-5.72154269551608e+00dB,-1.14857658021532e+02°)	(-2.35162802751567e+01dB,4.91202259557351e+01°)	(2.10258877618920e+01dB,1.10559512532888e+02°)	(-6.05891335489706e+00dB,-5.84669738531059e+01°)
1.01204541109654e+09	(-5.72204240996667e+00dB,-1.14874229259699e+02°)	(-2.35153708693360e+01dB,4.91173245587357e+01°)	(2.10244707990589e+01dB,1.10550697589505e+02°)	(-6.06056626351446e+00dB,-5.84734067380873e+01°)
1.01227846999511e+09	(-5.72254198631090e+00dB,-1.14890801075393e+02°)	(-2.35144615182692e+01dB,4.91144243543591e+01°)	(2.10230536584132e+01dB,1.10541882876970e+02°)	(-6.06221953594451e+00dB,-5.84798383862431e+01°)
1.01251158256365e+09	(-5.72304149755556e+00dB,-1.14907373500924e+02°)	(-2.35135522426601e+01dB,4.91115249324108e+01°)	(2.10216363192151e+01dB,1.10533067985082e+02°)	(-6.06387310727752e+00dB,-5.84862698921300e+01°)
1.01274474881453e+09	(-5.72354094770244e+00dB,-1.14923946710900e+02°)	(-2.35126430643416e+01dB,4.91086259625226e+01°)	(2.10202187595960e+01dB,1.10524252583463e+02°)	(-6.06552696865725e+00dB,-5.84927016002043e+01°)
1.01297796876010e+09	(-5.72404032843127e+00dB,-1.14940520338193e+02°)	(-2.35117339374004e+01dB,4.91057281358465e+01°)	(2.10188010254333e+01dB,1.10515437363255e+02°)	(-6.06718113839962e+00dB,-5.84991327925301e+01°)
1.01321124241273e+09	(-5.72453963963424e+00dB,-1.14957094377153e+02°)	(-2.35108248611011e+01dB,4.91028314623898e+01°)	(2.10173831174264e+01dB,1.10506622334458e+02°)	(-6.06883561675136e+00dB,-5.85055634596404e+01°)
1.01344456978479e+09	(-5.72503881631486e+00dB,-1.14973669144141e+02°)	(-2.35099158584159e+01dB,4.90999356914814e+01°)	(2.10159650125673e+01dB,1.10497807246392e+02°)	(-6.07049045105529e+00dB,-5.85119931959593e+01°)
1.01367795088864e+09	(-5.72553796392234e+00dB,-1.14990244510567e+02°)	(-2.35090069381775e+01dB,4.90970405434811e+01°)	(2.10145467019873e+01dB,1.10488991819407e+02°)	(-6.07214555270201e+00dB,-5.85184232938756e+01°)
1.01391138573667e+09	(-5.72603700924181e+00dB,-1.15006820431988e+02°)	(-2.35080980782060e+01dB,4.90941464485669e+01°)	(2.10131282078304e+01dB,1.10480176483674e+02°)	(-6.07380098719949e+00dB,-5.85248526397685e+01°)
1.01414487434125e+09	(-5.72653595216912e+00dB,-1.15023396902455e+02°)	(-2.35071892777639e+01dB,4.90912534167828e+01°)	(2.10117095307983e+01dB,1.10471361249228e+02°)	(-6.07545675480752e+00dB,-5.85312812240977e+01°)
1.01437841671476e+09	(-5.72703486570439e+00dB,-1.15039973954771e+02°)	(-2.35062805575344e+01dB,4.90883610381868e+01°)	(2.10102906501718e+01dB,1.10462545706119e+02°)	(-6.07711279038837e+00dB,-5.85377101412039e+01°)
1.01461201286958e+09	(-5.72753367663474e+00dB,-1.15056551544403e+02°)	(-2.35053718953486e+01dB,4.90854697428411e+01°)	(2.10088715880840e+01dB,1.10453730284400e+02°)	(-6.07876915953296e+00dB,-5.85441382775909e+01°)
1.01484566281809e+09	(-5.72803242552281e+00dB,-1.15073129864569e+02°)	(-2.35044633237271e+01dB,4.90825789906452e+01°)	(2.10074523119783e+01dB,1.10444914443964e+02°)	(-6.08042582061056e+00dB,-5.85505665292718e+01°)
1.01507936657269e+09	(-5.72853107159631e+00dB,-1.15089708710129e+02°)	(-2.35035548086639e+01dB,4.90796893418376e+01°)	(2.10060328558248e+01dB,1.10436098745040e+02°)	(-6.08208281571900e+00dB,-5.85569939810497e+01°)
1.01531312414576e+09	(-5.72902965130119e+00dB,-1.15106288094654e+02°)	(-2.35026463601284e+01dB,4.90768005965017e+01°)	(2.10046132096182e+01dB,1.10427282987703e+02°)	(-6.08374011237319e+00dB,-5.85634211753010e+01°)
1.01554693554969e+09	(-5.72952812797894e+00dB,-1.15122867992899e+02°)	(-2.35017379666734e+01dB,4.90739129745868e+01°)	(2.10031933847698e+01dB,1.10418467391897e+02°)	(-6.08539774354959e+00dB,-5.85698475506033e+01°)
1.01578080079689e+09	(-5.73002654219441e+00dB,-1.15139448597838e+02°)	(-2.35008296608041e+01dB,4.90710259361809e+01°)	(2.10017733487385e+01dB,1.10409651417699e+02°)	(-6.08705566752870e+00dB,-5.85762740027285e+01°)
1.01601471989976e+09	(-5.73052488972258e+00dB,-1.15156029724193e+02°)	(-2.34999214192355e+01dB,4.90681398314018e+01°)	(2.10003531247734e+01dB,1.10400835415222e+02°)	(-6.08871389372041e+00dB,-5.85827001686283e+01°)
1.01624869287069e+09	(-5.73102317045730e+00dB,-1.15172611366188e+02°)	(-2.34990132412318e+01dB,4.90652546702828e+01°)	(2.09989327135742e+01dB,1.10392019394489e+02°)	(-6.09037242236127e+00dB,-5.85891260387962e+01°)
1.01648271972209e+09	(-5.73152135186191e+00dB,-1.15189193677631e+02°)	(-2.34981051378759e+01dB,4.90623703327686e+01°)	(2.09975121040222e+01dB,1.10383203235440e+02°)	(-6.09203127722357e+00dB,-5.85955514051297e+01°)
1.01671680046637e+09	(-5.73201942971133e+00dB,-1.15205776473455e+02°)	(-2.34971970859059e+01dB,4.90594871688118e+01°)	(2.09960913193435e+01dB,1.10374387288018e+02°)	(-6.09369046781482e+00dB,-5.86019759048449e+01°)
1.01695093511594e+09	(-5.73251744457109e+00dB,-1.15222359946374e+02°)	(-2.34962891177999e+01dB,4.90566046387185e+01°)	(2.09946703270239e+01dB,1.10365571012522e+02°)	(-6.09534995228300e+00dB,-5.86084004333860e+01°)
1.01718512368321e+09	(-5.73301539221245e+00dB,-1.15238943911609e+02°)	(-2.34953812102981e+01dB,4.90537230923978e+01°)	(2.09932491502872e+01dB,1.10356754758855e+02°)	(-6.09700974011836e+00dB,-5.86148246280440e+01°)
1.01741936618060e+09	(-5.73351327665286e+00dB,-1.15255528542173e+02°)	(-2.34944733851742e+01dB,4.90508422000788e+01°)	(2.09918277673241e+01dB,1.10347938197238e+02°)	(-6.09866982225031e+00dB,-5.86212488323533e+01°)
1.01765366262053e+09	(-5.73401102469097e+00dB,-1.15272113792807e+02°)	(-2.34935656202970e+01dB,4.90479623913814e+01°)	(2.09904062002295e+01dB,1.10339121757283e+02°)	(-6.10033026462550e+00dB,-5.86276719332196e+01°)
1.01788801301542e+09	(-5.73450870519158e+00dB,-1.15288699518296e+02°)	(-2.34926579138058e+01dB,4.90450835964874e+01°)	(2.09889844508283e+01dB,1.10330305369167e+02°)	(-6.10199101106733e+00dB,-5.86340946716357e+01°)
1.01812241737769e+09	(-5.73500635459600e+00dB,-1.15305285732653e+02°)	(-2.34917502756607e+01dB,4.90422056156457e+01°)	(2.09875625091245e+01dB,1.10321488833131e+02°)	(-6.10365202892807e+00dB,-5.86405175898824e+01°)
1.01835687571978e+09	(-5.73550387140943e+00dB,-1.15321872727853e+02°)	(-2.34908427180449e+01dB,4.90393284087707e+01°)	(2.09861403628989e+01dB,1.10312672109082e+02°)	(-6.10531339842514e+00dB,-5.86469397289680e+01°)
1.01859138805411e+09	(-5.73600135691350e+00dB,-1.15338460200299e+02°)	(-2.34899352272927e+01dB,4.90364520360133e+01°)	(2.09847180257814e+01dB,1.10303855257164e+02°)	(-6.10697503976853e+00dB,-5.86533620287900e+01°)
1.01882595439312e+09	(-5.73649870548917e+00dB,-1.15355048263338e+02°)	(-2.34890277930956e+01dB,4.90335767968712e+01°)	(2.09832955080443e+01dB,1.10295038576870e+02°)	(-6.10863704258886e+00dB,-5.86597831775761e+01°)
1.01906057474924e+09	(-5.73699602254074e+00dB,-1.15371636792235e+02°)	(-2.34881204242896e+01dB,4.90307024118107e+01°)	(2.09818728008159e+01dB,1.10286221788657e+02°)	(-6.11029931771443e+00dB,-5.86662044681608e+01°)
1.01929524913492e+09	(-5.73749320658468e+00dB,-1.15388226078015e+02°)	(-2.34872131330492e+01dB,4.90278288408240e+01°)	(2.09804498918856e+01dB,1.10277404852513e+02°)	(-6.11196194542797e+00dB,-5.86726249413287e+01°)
1.01952997756260e+09	(-5.73799035889151e+00dB,-1.15404815818118e+02°)	(-2.34863059057241e+01dB,4.90249561439340e+01°)	(2.09790267948677e+01dB,1.10268587828453e+02°)	(-6.11362484589166e+00dB,-5.86790455372867e+01°)
1.01976476004471e+09	(-5.73848741039408e+00dB,-1.15421406145170e+02°)	(-2.34853987426896e+01dB,4.90220844109445e+01°)	(2.09776035093511e+01dB,1.10259770806276e+02°)	(-6.11528807585438e+00dB,-5.86854654958480e+01°)
1.01999959659371e+09	(-5.73898439753285e+00dB,-1.15437997073134e+02°)	(-2.34844916538900e+01dB,4.90192134422343e+01°)	(2.09761800253555e+01dB,1.10250953586353e+02°)	(-6.11695160257096e+00dB,-5.86918853591111e+01°)
1.02023448722206e+09	(-5.73948128779273e+00dB,-1.15454588753919e+02°)	(-2.34835846503728e+01dB,4.90163431180818e+01°)	(2.09747563317973e+01dB,1.10242136048958e+02°)	(-6.11861544981296e+00dB,-5.86983049183149e+01°)
1.02046943194219e+09	(-5.73997806866041e+00dB,-1.15471180648887e+02°)	(-2.34826776640033e+01dB,4.90134744664224e+01°)	(2.09733324967755e+01dB,1.10233319222018e+02°)	(-6.12027964618836e+00dB,-5.87047231069476e+01°)
1.02070443076658e+09	(-5.74047482138901e+00dB,-1.15487773147395e+02°)	(-2.34817707603384e+01dB,4.90106063993865e+01°)	(2.09719084546970e+01dB,1.10224502017660e+02°)	(-6.12194410699904e+00dB,-5.87111417234312e+01°)
1.02093948370767e+09	(-5.74097147692224e+00dB,-1.15504366381177e+02°)	(-2.34808639397425e+01dB,4.90077390068788e+01°)	(2.09704842051616e+01dB,1.10215684525782e+02°)	(-6.12360888903486e+00dB,-5.87175600073382e+01°)
1.02117459077794e+09	(-5.74146803515764e+00dB,-1.15520960344131e+02°)	(-2.34799572014716e+01dB,4.90048722989531e+01°)	(2.09690597488772e+01dB,1.10206866756431e+02°)	(-6.12527399251719e+00dB,-5.87239779490558e+01°)
1.02140975198984e+09	(-5.74196452011239e+00dB,-1.15537554518773e+02°)	(-2.34790504881056e+01dB,4.90020070935693e+01°)	(2.09676351432280e+01dB,1.10198049527563e+02°)	(-6.12693941312440e+00dB,-5.87303950342598e+01°)
