Freq.	S11(V1)	S12(V1)	S21(V1)	S22(V1)
5.00000000000000e+08	2.25123050155082e-01,-5.77037107994323e-01	2.18300010718701e-02,3.96127029448032e-02	-1.19593494506380e+01,1.13657592104613e+01	6.00354680872205e-01,-4.69138152638297e-01
5.00115142510412e+08	2.24980417368730e-01,-5.77059738586905e-01	2.18364829268566e-02,3.96171602015443e-02	-1.19567880352321e+01,1.13664086859542e+01	6.00246430831706e-01,-4.69163331782857e-01
5.00230311536420e+08	2.24837765802322e-01,-5.77082336629963e-01	2.18429658096344e-02,3.96216167193458e-02	-1.19542262610029e+01,1.13670576496201e+01	6.00138165790737e-01,-4.69188489432406e-01
5.00345507084129e+08	2.24695098150730e-01,-5.77104901354271e-01	2.18494495746566e-02,3.96260726660712e-02	-1.19516642009004e+01,1.13677060656357e+01	6.00029888563890e-01,-4.69213622946836e-01
5.00460729159648e+08	2.24552414722671e-01,-5.77127432655585e-01	2.18559342060289e-02,3.96305280595467e-02	-1.19491018629371e+01,1.13683539300597e+01	5.99921599452768e-01,-4.69238732058218e-01
5.00575977769084e+08	2.24409715499249e-01,-5.77149929394194e-01	2.18624197652116e-02,3.96349828396450e-02	-1.19465392204956e+01,1.13690012590098e+01	5.99813296573864e-01,-4.69263819903195e-01
5.00691252918549e+08	2.24266996676347e-01,-5.77172394858791e-01	2.18689063408196e-02,3.96394368796502e-02	-1.19439762210092e+01,1.13696480719928e+01	5.99704979573987e-01,-4.69288884140926e-01
5.00806554614154e+08	2.24124264732531e-01,-5.77194823855182e-01	2.18753937602096e-02,3.96438904140969e-02	-1.19414129633548e+01,1.13702943298595e+01	5.99596649736503e-01,-4.69313927610704e-01
5.00921882862013e+08	2.23981514133906e-01,-5.77217222403697e-01	2.18818820869054e-02,3.96483433220104e-02	-1.19388493993006e+01,1.13709400438185e+01	5.99488308566212e-01,-4.69338943533787e-01
5.01037237668239e+08	2.23838746918471e-01,-5.77239587667559e-01	2.18883713301165e-02,3.96527956154492e-02	-1.19362855325144e+01,1.13715852182336e+01	5.99379954506551e-01,-4.69363936081571e-01
5.01152619038949e+08	2.23695963068298e-01,-5.77261918506135e-01	2.18948615513054e-02,3.96572472341738e-02	-1.19337213363830e+01,1.13722298691726e+01	5.99271585674089e-01,-4.69388908387727e-01
5.01268026980261e+08	2.23553163218292e-01,-5.77284215851871e-01	2.19013526572665e-02,3.96616982739955e-02	-1.19311568535230e+01,1.13728739726846e+01	5.99163204554457e-01,-4.69413856782640e-01
5.01383461498293e+08	2.23410347676413e-01,-5.77306479601385e-01	2.19078446321357e-02,3.96661487527282e-02	-1.19285920919282e+01,1.13735175248481e+01	5.99054811448357e-01,-4.69438780999262e-01
5.01498922599165e+08	2.23267514369126e-01,-5.77328710307228e-01	2.19143375896096e-02,3.96705985377772e-02	-1.19260269947121e+01,1.13741605534092e+01	5.98946404146324e-01,-4.69463683134186e-01
5.01614410289000e+08	2.23124665985843e-01,-5.77350907209769e-01	2.19208313842805e-02,3.96750477973435e-02	-1.19234616347472e+01,1.13748030227774e+01	5.98837985459407e-01,-4.69488560556974e-01
5.01729924573919e+08	2.22981798072870e-01,-5.77373071515134e-01	2.19273262593648e-02,3.96794962483068e-02	-1.19208958902780e+01,1.13754449923008e+01	5.98729550668171e-01,-4.69513417724831e-01
5.01845465460048e+08	2.22838915699580e-01,-5.77395201810209e-01	2.19338219399458e-02,3.96839442093742e-02	-1.19183298990395e+01,1.13760863947884e+01	5.98621105093323e-01,-4.69538249646791e-01
5.01961032953512e+08	2.22696016792980e-01,-5.77417298646276e-01	2.19403185397112e-02,3.96883915478684e-02	-1.19157636041456e+01,1.13767272579522e+01	5.98512646525326e-01,-4.69563058417964e-01
5.02076627060439e+08	2.22553101985464e-01,-5.77439362957697e-01	2.19468159654920e-02,3.96928383597490e-02	-1.19131970481848e+01,1.13773675579408e+01	5.98404177449060e-01,-4.69587840374731e-01
5.02192247786957e+08	2.22410170610075e-01,-5.77461391528699e-01	2.19533144334436e-02,3.96972844283053e-02	-1.19106301353263e+01,1.13780073506554e+01	5.98295691611488e-01,-4.69612605441945e-01
5.02307895139197e+08	2.22267223948313e-01,-5.77483387369617e-01	2.19598136957497e-02,3.97017300058528e-02	-1.19080629773575e+01,1.13786465723892e+01	5.98187195865891e-01,-4.69637343162612e-01
5.02423569123289e+08	2.22124259604032e-01,-5.77505349990754e-01	2.19663139434009e-02,3.97061748813850e-02	-1.19054954828053e+01,1.13792852707089e+01	5.98078685819158e-01,-4.69662059025595e-01
5.02539269745368e+08	2.21981278208918e-01,-5.77527280326444e-01	2.19728150832430e-02,3.97106191508847e-02	-1.19029276942511e+01,1.13799234217857e+01	5.97970163956242e-01,-4.69686749369100e-01
5.02654997011566e+08	2.21838281799919e-01,-5.77549175548244e-01	2.19793171246314e-02,3.97150628263564e-02	-1.19003596153085e+01,1.13805610300218e+01	5.97861628716633e-01,-4.69711418360555e-01
5.02770750928021e+08	2.21695268630294e-01,-5.77571037241140e-01	2.19858201038953e-02,3.97195058531240e-02	-1.18977912237090e+01,1.13811981031132e+01	5.97753080076047e-01,-4.69736064695392e-01
5.02886531500868e+08	2.21552239330371e-01,-5.77592866341010e-01	2.19923239279093e-02,3.97239483272502e-02	-1.18952225620179e+01,1.13818346172855e+01	5.97644520518934e-01,-4.69760684714672e-01
5.03002338736247e+08	2.21409191506832e-01,-5.77614662353731e-01	2.19988287876243e-02,3.97283900374630e-02	-1.18926535387859e+01,1.13824706199702e+01	5.97535945653000e-01,-4.69785283900823e-01
5.03118172640298e+08	2.21266130219476e-01,-5.77636423883341e-01	2.20053344083551e-02,3.97328313031135e-02	-1.18900842916176e+01,1.13831060443940e+01	5.97427360792869e-01,-4.69809857280140e-01
5.03234033219162e+08	2.21123051022205e-01,-5.77658152120718e-01	2.20118410331787e-02,3.97372718403858e-02	-1.18875146988403e+01,1.13837409495347e+01	5.97318761223273e-01,-4.69834409294872e-01
5.03349920478981e+08	2.20979956597465e-01,-5.77679846317966e-01	2.20183485168779e-02,3.97417118178850e-02	-1.18849448332277e+01,1.13843753000917e+01	5.97210149750946e-01,-4.69858937326845e-01
5.03465834425901e+08	2.20836844876239e-01,-5.77701507018015e-01	2.20248569730781e-02,3.97461511025197e-02	-1.18823746379303e+01,1.13850091235736e+01	5.97101524168220e-01,-4.69883443462985e-01
5.03581775066066e+08	2.20693718539880e-01,-5.77723133475025e-01	2.20313662565851e-02,3.97505898629702e-02	-1.18798041857050e+01,1.13856423847285e+01	5.96992887280916e-01,-4.69907925087084e-01
5.03697742405624e+08	2.20550573467220e-01,-5.77744727913443e-01	2.20378765331137e-02,3.97550278935461e-02	-1.18772333894955e+01,1.13862751225754e+01	5.96884236559724e-01,-4.69932383246122e-01
5.03813736450723e+08	2.20407414391036e-01,-5.77766287906307e-01	2.20443876054044e-02,3.97594654355422e-02	-1.18746623522558e+01,1.13869072903748e+01	5.96775575131943e-01,-4.69956816365313e-01
5.03929757207514e+08	2.20264236869252e-01,-5.77787814636434e-01	2.20508997164619e-02,3.97639022047802e-02	-1.18720909523604e+01,1.13875389469093e+01	5.96666898284843e-01,-4.69981228879019e-01
5.04045804682146e+08	2.20121045955081e-01,-5.77809306719659e-01	2.20574125917566e-02,3.97683385210451e-02	-1.18695193273194e+01,1.13881700256915e+01	5.96558211328343e-01,-4.70005615825307e-01
5.04161878880774e+08	2.19977837207382e-01,-5.77830765336795e-01	2.20639264742814e-02,3.97727741000683e-02	-1.18669473555189e+01,1.13888005854574e+01	5.96449509550432e-01,-4.70029981636747e-01
5.04277979809551e+08	2.19834611253590e-01,-5.77852191425622e-01	2.20704412709513e-02,3.97772090380357e-02	-1.18643750794811e+01,1.13894306025382e+01	5.96340795433828e-01,-4.70054322660899e-01
5.04394107474633e+08	2.19691370450529e-01,-5.77873583205577e-01	2.20769569139693e-02,3.97816434253704e-02	-1.18618025373428e+01,1.13900600616020e+01	5.96232069598594e-01,-4.70078639675043e-01
5.04510261882177e+08	2.19548112731392e-01,-5.77894941214676e-01	2.20834735169326e-02,3.97860771287272e-02	-1.18592296722750e+01,1.13906889900382e+01	5.96123329838269e-01,-4.70102934761360e-01
5.04626443038341e+08	2.19404840773257e-01,-5.77916264714423e-01	2.20899909347576e-02,3.97905103170360e-02	-1.18566565569693e+01,1.13913173527740e+01	5.96014578955511e-01,-4.70127205311126e-01
5.04742650949284e+08	2.19261550458756e-01,-5.77937555919400e-01	2.20965093330664e-02,3.97949427842470e-02	-1.18540831044182e+01,1.13919451886363e+01	5.95905814423976e-01,-4.70151452365215e-01
5.04858885621169e+08	2.19118244144204e-01,-5.77958813050657e-01	2.21030286440893e-02,3.97993746207782e-02	-1.18515093527427e+01,1.13925724823085e+01	5.95797036862741e-01,-4.70175676700735e-01
5.04975147060158e+08	2.18974924185187e-01,-5.77980034331682e-01	2.21095488000800e-02,3.98038059170949e-02	-1.18489353400453e+01,1.13931992185102e+01	5.95688246889439e-01,-4.70199879095468e-01
5.05091435272415e+08	2.18831585054575e-01,-5.78001225732202e-01	2.21160698640486e-02,3.98082365514775e-02	-1.18463610182837e+01,1.13938254080054e+01	5.95579446026243e-01,-4.70224052780226e-01
5.05207750264105e+08	2.18688232568976e-01,-5.78022380041812e-01	2.21225918188497e-02,3.98126666026537e-02	-1.18437864167837e+01,1.13944510520928e+01	5.95470631163307e-01,-4.70248207382676e-01
5.05324092041395e+08	2.18544861202120e-01,-5.78043503227521e-01	2.21291147274547e-02,3.98170959488255e-02	-1.18412114875128e+01,1.13950761614929e+01	5.95361803823274e-01,-4.70272336132611e-01
5.05440460610454e+08	2.18401475039708e-01,-5.78064590797557e-01	2.21356385474553e-02,3.98215246745898e-02	-1.18386362641739e+01,1.13957007292298e+01	5.95252962759423e-01,-4.70296444232544e-01
5.05556855977452e+08	2.18258072655296e-01,-5.78085645368272e-01	2.21421632378338e-02,3.98259528036145e-02	-1.18360607590742e+01,1.13963247431991e+01	5.95144110133685e-01,-4.70320526996704e-01
5.05673278148558e+08	2.18114654034409e-01,-5.78106665797896e-01	2.21486888601743e-02,3.98303802750235e-02	-1.18334849455745e+01,1.13969482192543e+01	5.95035244060311e-01,-4.70344587544082e-01
5.05789727129947e+08	2.17971219799989e-01,-5.78127653028615e-01	2.21552153214773e-02,3.98348071852522e-02	-1.18309088661387e+01,1.13975711339049e+01	5.94926367019925e-01,-4.70368622232212e-01
5.05906202927792e+08	2.17827769937318e-01,-5.78148605919230e-01	2.21617426833490e-02,3.98392334734226e-02	-1.18283324941263e+01,1.13981935030095e+01	5.94817477127015e-01,-4.70392634179999e-01
5.06022705548269e+08	2.17684304750655e-01,-5.78169524370467e-01	2.21682709300831e-02,3.98436591572953e-02	-1.18257558374408e+01,1.13988153227486e+01	5.94708574678138e-01,-4.70416623125200e-01
5.06139234997554e+08	2.17540822494742e-01,-5.78190409954391e-01	2.21748000979525e-02,3.98480841818480e-02	-1.18231788738427e+01,1.13994366006800e+01	5.94599659653065e-01,-4.70440587764110e-01
5.06255791281825e+08	2.17397323156159e-01,-5.78211261528235e-01	2.21813302485392e-02,3.98525084860801e-02	-1.18206015766942e+01,1.14000573526049e+01	5.94490730165729e-01,-4.70464531212668e-01
5.06372374407263e+08	2.17253809722458e-01,-5.78232079407909e-01	2.21878611596576e-02,3.98569323180866e-02	-1.18180240531288e+01,1.14006775241200e+01	5.94381791197362e-01,-4.70488447496920e-01
5.06488984380049e+08	2.17110279496381e-01,-5.78252862036368e-01	2.21943930994152e-02,3.98613553865236e-02	-1.18154461772741e+01,1.14012971816213e+01	5.94272836177617e-01,-4.70512345444681e-01
5.06605621206364e+08	2.16966733733267e-01,-5.78273612443086e-01	2.22009258202903e-02,3.98657779454756e-02	-1.18128680606526e+01,1.14019162624748e+01	5.94163871952951e-01,-4.70536214664391e-01
5.06722284892394e+08	2.16823172102130e-01,-5.78294328443445e-01	2.22074594611768e-02,3.98701998551576e-02	-1.18102896420779e+01,1.14025348020991e+01	5.94054894453906e-01,-4.70560061648554e-01
5.06838975444322e+08	2.16679592858608e-01,-5.78315011606229e-01	2.22139940583157e-02,3.98746210604384e-02	-1.18077108993173e+01,1.14031528080031e+01	5.93945903660626e-01,-4.70583885092624e-01
5.06955692868337e+08	2.16536000401719e-01,-5.78335658497697e-01	2.22205294922374e-02,3.98790417248438e-02	-1.18051319005152e+01,1.14037702537689e+01	5.93836900502846e-01,-4.70607686822370e-01
5.07072437170627e+08	2.16392388891550e-01,-5.78356274020624e-01	2.22270659029796e-02,3.98834616474500e-02	-1.18025525631873e+01,1.14043871695159e+01	5.93727884327786e-01,-4.70631463446678e-01
5.07189208357380e+08	2.16248764773753e-01,-5.78376853076742e-01	2.22336031192112e-02,3.98878810647368e-02	-1.17999729855845e+01,1.14050035175668e+01	5.93618856380618e-01,-4.70655217835983e-01
5.07306006434789e+08	2.16105122208990e-01,-5.78397400566248e-01	2.22401412809454e-02,3.98922997757304e-02	-1.17973930852337e+01,1.14056193280116e+01	5.93509816009456e-01,-4.70678946599201e-01
5.07422831409045e+08	2.15961465594430e-01,-5.78417913059579e-01	2.22466802687762e-02,3.98967179440510e-02	-1.17948129302473e+01,1.14062345745076e+01	5.93400764142302e-01,-4.70702651564287e-01
5.07539683286343e+08	2.15817792869994e-01,-5.78438391080258e-01	2.22532201962166e-02,3.99011354356289e-02	-1.17922324638636e+01,1.14068492840966e+01	5.93291698576749e-01,-4.70726334799763e-01
5.07656562072878e+08	2.15674102607141e-01,-5.78458837238037e-01	2.22597610222145e-02,3.99055522741718e-02	-1.17896516983806e+01,1.14074634447237e+01	5.93182621476442e-01,-4.70749991629458e-01
5.07773467774847e+08	2.15530398886424e-01,-5.78479247063215e-01	2.22663027046929e-02,3.99099685444410e-02	-1.17870706673590e+01,1.14080770496302e+01	5.93073531584927e-01,-4.70773627253915e-01
5.07890400398447e+08	2.15386677917197e-01,-5.78499623785090e-01	2.22728453317362e-02,3.99143841182465e-02	-1.17844893184672e+01,1.14086901175453e+01	5.92964428568132e-01,-4.70797239324483e-01
5.08007359949880e+08	2.15242939687785e-01,-5.78519966260125e-01	2.22793889649625e-02,3.99187989343112e-02	-1.17819076250600e+01,1.14093026641710e+01	5.92855310539045e-01,-4.70820830950448e-01
5.08124346435345e+08	2.15099189535941e-01,-5.78540274201290e-01	2.22859332533052e-02,3.99232133934014e-02	-1.17793257587544e+01,1.14099146048141e+01	5.92746184970979e-01,-4.70844393853899e-01
5.08241359861045e+08	2.14955420996220e-01,-5.78560550407350e-01	2.22924784911753e-02,3.99276271362846e-02	-1.17767435680909e+01,1.14105260083953e+01	5.92637046850363e-01,-4.70867931381307e-01
5.08358400233185e+08	2.14811638148492e-01,-5.78580790413090e-01	2.22990246365635e-02,3.99320402477270e-02	-1.17741610866042e+01,1.14111368681843e+01	5.92527894918820e-01,-4.70891448731632e-01
5.08475467557969e+08	2.14667839249151e-01,-5.78600995782263e-01	2.23055717256928e-02,3.99364526724311e-02	-1.17715782920691e+01,1.14117471916280e+01	5.92418729157714e-01,-4.70914944600106e-01
5.08592561841604e+08	2.14524020823233e-01,-5.78621170781586e-01	2.23121197693122e-02,3.99408643610729e-02	-1.17689951667002e+01,1.14123569778925e+01	5.92309551418138e-01,-4.70938413269480e-01
5.08709683090299e+08	2.14380193711988e-01,-5.78641308062904e-01	2.23186684155398e-02,3.99452757758225e-02	-1.17664119032554e+01,1.14129661478371e+01	5.92200365744822e-01,-4.70961856342435e-01
5.08826831310264e+08	2.14236349095294e-01,-5.78661411031069e-01	2.23252180877831e-02,3.99496864049718e-02	-1.17638282857428e+01,1.14135748008326e+01	5.92091164631559e-01,-4.70985279479201e-01
5.08944006507708e+08	2.14092485856771e-01,-5.78681483337088e-01	2.23317686677091e-02,3.99540963513319e-02	-1.17612443609656e+01,1.14141829054071e+01	5.91981952425648e-01,-4.71008674642857e-01
5.09061208688845e+08	2.13948607761794e-01,-5.78701519475995e-01	2.23383201906601e-02,3.99585056205967e-02	-1.17586601279137e+01,1.14147904743177e+01	5.91872725683779e-01,-4.71032050397395e-01
5.09178437859889e+08	2.13804715424458e-01,-5.78721520397880e-01	2.23448725638111e-02,3.99629143096395e-02	-1.17560756289341e+01,1.14153974844070e+01	5.91763486882670e-01,-4.71055403119190e-01
5.09295694027055e+08	2.13660805369238e-01,-5.78741490365889e-01	2.23514257978816e-02,3.99673223691450e-02	-1.17534908462443e+01,1.14160039348507e+01	5.91654237874458e-01,-4.71078727094841e-01
5.09412977196560e+08	2.13516881361075e-01,-5.78761423878528e-01	2.23579799282618e-02,3.99717298048071e-02	-1.17509057788135e+01,1.14166098384252e+01	5.91544975214176e-01,-4.71102030886890e-01
5.09530287374622e+08	2.13372939613055e-01,-5.78781324150789e-01	2.23645350428997e-02,3.99761364880623e-02	-1.17483203743693e+01,1.14172152136623e+01	5.91435698572179e-01,-4.71125312144042e-01
5.09647624567461e+08	2.13228984825866e-01,-5.78801188822699e-01	2.23710909454872e-02,3.99805426621614e-02	-1.17457347353586e+01,1.14178200151898e+01	5.91326411049168e-01,-4.71148569338999e-01
5.09764988781298e+08	2.13085013212348e-01,-5.78821021108164e-01	2.23776477239516e-02,3.99849481985506e-02	-1.17431488095061e+01,1.14184242615465e+01	5.91217112315403e-01,-4.71171800121892e-01
5.09882380022355e+08	2.12941024761630e-01,-5.78840819863628e-01	2.23842054399844e-02,3.99893530357517e-02	-1.17405625701623e+01,1.14190279683729e+01	5.91107800484069e-01,-4.71195007597696e-01
5.09999798296857e+08	2.12797021818056e-01,-5.78860583339461e-01	2.23907640262875e-02,3.99937572646785e-02	-1.17379760552051e+01,1.14196311208306e+01	5.90998476160320e-01,-4.71218192555461e-01
5.10117243611028e+08	2.12653004681715e-01,-5.78880311440943e-01	2.23973234673337e-02,3.99981609031010e-02	-1.17353892724617e+01,1.14202337152185e+01	5.90889139638256e-01,-4.71241354738553e-01
5.10234715971096e+08	2.12508969566874e-01,-5.78900007377078e-01	2.24038838510105e-02,4.00025638223301e-02	-1.17328021696816e+01,1.14208357700014e+01	5.90779790590045e-01,-4.71264491795752e-01
5.10352215383289e+08	2.12364920859601e-01,-5.78919667748225e-01	2.24104450583599e-02,4.00069661865684e-02	-1.17302148147682e+01,1.14214372593026e+01	5.90670429931610e-01,-4.71287605565321e-01
5.10469741853836e+08	2.12220856816896e-01,-5.78939294111303e-01	2.24170071255595e-02,4.00113679403450e-02	-1.17276271855030e+01,1.14220381905069e+01	5.90561057645642e-01,-4.71310694743742e-01
5.10587295388969e+08	2.12076775696256e-01,-5.78958888021398e-01	2.24235700887684e-02,4.00157690281639e-02	-1.17250392596806e+01,1.14226385709775e+01	5.90451673715831e-01,-4.71333758027469e-01
5.10704875994921e+08	2.11932679220183e-01,-5.78978445636963e-01	2.24301340352336e-02,4.00201693823196e-02	-1.17224510061931e+01,1.14232384245455e+01	5.90342274382786e-01,-4.71356802922984e-01
5.10822483677925e+08	2.11788568618067e-01,-5.78997970006984e-01	2.24366987177415e-02,4.00245692586256e-02	-1.17198625362875e+01,1.14238376896282e+01	5.90232866484979e-01,-4.71379819102091e-01
5.10940118444216e+08	2.11644441218279e-01,-5.79017459541960e-01	2.24432644041484e-02,4.00289683634529e-02	-1.17172737243306e+01,1.14244364314477e+01	5.90123443461367e-01,-4.71402815331925e-01
5.11057780300032e+08	2.11500297939754e-01,-5.79036916242471e-01	2.24498309244778e-02,4.00333668732873e-02	-1.17146846470883e+01,1.14250346077371e+01	5.90014009968943e-01,-4.71425784643641e-01
5.11175469251611e+08	2.11356138463691e-01,-5.79056337916812e-01	2.24563984176611e-02,4.00377646470465e-02	-1.17120952434265e+01,1.14256322533362e+01	5.89904561937651e-01,-4.71448733492561e-01
5.11293185305193e+08	2.11211965748965e-01,-5.79075724919990e-01	2.24629666621002e-02,4.00421619346442e-02	-1.17095056201058e+01,1.14262293150232e+01	5.89795104333167e-01,-4.71471655961492e-01
5.11410928467018e+08	2.11067777744008e-01,-5.79095077757105e-01	2.24695357711792e-02,4.00465586011036e-02	-1.17069157204463e+01,1.14268258194077e+01	5.89685634957713e-01,-4.71494554102356e-01
5.11528698743330e+08	2.10923572398463e-01,-5.79114396930921e-01	2.24761058582634e-02,4.00509545113533e-02	-1.17043254877862e+01,1.14274217930451e+01	5.89576151614603e-01,-4.71517429964997e-01
5.11646496140373e+08	2.10779354401984e-01,-5.79133680104079e-01	2.24826767273657e-02,4.00553499092962e-02	-1.17017350243931e+01,1.14280171910233e+01	5.89466657394950e-01,-4.71540282037927e-01
5.11764320664391e+08	2.10635119971352e-01,-5.79152930474128e-01	2.24892484662702e-02,4.00597446659798e-02	-1.16991442780637e+01,1.14286120316682e+01	5.89357151974850e-01,-4.71563107969310e-01
5.11882172321633e+08	2.10490869097624e-01,-5.79172146897056e-01	2.24958211367027e-02,4.00641387196333e-02	-1.16965532221391e+01,1.14292063305164e+01	5.89247633466138e-01,-4.71585910856865e-01
