Freq.	S11(V1)	S12(V1)	S21(V1)	S22(V1)
1.00000000000000e+08	6.87802508879183e-01,-1.86732262256458e-01	1.35800279300318e-03,1.09346213261922e-02	-2.02497178478685e+01,3.54606651465163e+00	9.50192504391284e-01,-1.47414880343914e-01
1.00023028502082e+08	6.87788703405028e-01,-1.86773138897600e-01	1.35860301226387e-03,1.09370497738532e-02	-2.02494708338142e+01,3.54684523414376e+00	9.50182091055256e-01,-1.47447231511928e-01
1.00046062307284e+08	6.87774891675265e-01,-1.86814024077552e-01	1.35920350544074e-03,1.09394787186003e-02	-2.02492237063824e+01,3.54762412560536e+00	9.50171672933211e-01,-1.47479590142648e-01
1.00069101416826e+08	6.87761074138060e-01,-1.86854916275071e-01	1.35980425259123e-03,1.09419081649162e-02	-2.02489764755997e+01,3.54840315211013e+00	9.50161250414187e-01,-1.47511954483898e-01
1.00092145831930e+08	6.87747250589190e-01,-1.86895816504349e-01	1.36040525802180e-03,1.09443381117962e-02	-2.02487291390170e+01,3.54918232140103e+00	9.50150823482198e-01,-1.47544324099454e-01
1.00115195553817e+08	6.87733420741601e-01,-1.86936725207843e-01	1.36100654197388e-03,1.09467685551362e-02	-2.02484816869381e+01,3.54996167058512e+00	9.50140391636640e-01,-1.47576702005836e-01
1.00138250583710e+08	6.87719584813602e-01,-1.86977641889872e-01	1.36160809114602e-03,1.09491994978425e-02	-2.02482341258347e+01,3.55074117496785e+00	9.50129955188203e-01,-1.47609086428240e-01
1.00161310922831e+08	6.87705742754447e-01,-1.87018567066301e-01	1.36220990271476e-03,1.09516309404639e-02	-2.02479864568143e+01,3.55152082915211e+00	9.50119514263637e-01,-1.47641476257214e-01
1.00184376572403e+08	6.87691895008383e-01,-1.87059498671226e-01	1.36281196498188e-03,1.09540628859526e-02	-2.02477386862790e+01,3.55230061146219e+00	9.50109068978331e-01,-1.47673871820168e-01
1.00207447533648e+08	6.87678040907173e-01,-1.87100439220332e-01	1.36341430379594e-03,1.09564953285812e-02	-2.02474908009971e+01,3.55308056925639e+00	9.50098618881877e-01,-1.47706274711588e-01
1.00230523807790e+08	6.87664180589598e-01,-1.87141388196032e-01	1.36401691357796e-03,1.09589282696997e-02	-2.02472428038246e+01,3.55386069207851e+00	9.50088164075450e-01,-1.47738684535708e-01
1.00253605396052e+08	6.87650314388313e-01,-1.87182344593597e-01	1.36461977773182e-03,1.09613617130039e-02	-2.02469947029988e+01,3.55464094922260e+00	9.50077704908484e-01,-1.47771099534651e-01
1.00276692299659e+08	6.87636441939227e-01,-1.87223309383530e-01	1.36522291604686e-03,1.09637956543546e-02	-2.02467464888108e+01,3.55542137689709e+00	9.50067240944292e-01,-1.47803522029071e-01
1.00299784519833e+08	6.87622563768836e-01,-1.87264281074697e-01	1.36582630090730e-03,1.09662300997998e-02	-2.02464981748893e+01,3.55620192415224e+00	9.50056772781593e-01,-1.47835948898689e-01
1.00322882057800e+08	6.87608679203616e-01,-1.87305261637846e-01	1.36642996647185e-03,1.09686650420473e-02	-2.02462497443359e+01,3.55698265358656e+00	9.50046299694120e-01,-1.47868383816915e-01
1.00345984914784e+08	6.87594788421209e-01,-1.87346250570017e-01	1.36703390334194e-03,1.09711004832182e-02	-2.02460012017913e+01,3.55776354772985e+00	9.50035821886735e-01,-1.47900825704217e-01
1.00369093092010e+08	6.87580891444564e-01,-1.87387247868921e-01	1.36763810929689e-03,1.09735364238616e-02	-2.02457525483075e+01,3.55854460230815e+00	9.50025339420017e-01,-1.47933274156910e-01
1.00392206590702e+08	6.87566988760299e-01,-1.87428252034188e-01	1.36824256058708e-03,1.09759728692511e-02	-2.02455037957048e+01,3.55932577353027e+00	9.50014852787997e-01,-1.47965726746002e-01
1.00415325412088e+08	6.87553079963486e-01,-1.87469264027057e-01	1.36884728092394e-03,1.09784098144443e-02	-2.02452549324280e+01,3.56010710476946e+00	9.50004361447030e-01,-1.47998186484073e-01
1.00438449557391e+08	6.87539164961545e-01,-1.87510284358500e-01	1.36945227143136e-03,1.09808472591909e-02	-2.02450059577337e+01,3.56088859788863e+00	9.49993865417536e-01,-1.48030652957561e-01
1.00461579027839e+08	6.87525243427839e-01,-1.87551314015022e-01	1.37005754814339e-03,1.09832852001007e-02	-2.02447568636698e+01,3.56167028211284e+00	9.49983364365679e-01,-1.48063127804661e-01
1.00484713824658e+08	6.87511316312654e-01,-1.87592350000480e-01	1.37066306577936e-03,1.09857236471748e-02	-2.02445076728200e+01,3.56245207418232e+00	9.49972859218460e-01,-1.48095606573035e-01
1.00507853949074e+08	6.87497382864529e-01,-1.87633394813202e-01	1.37126885807545e-03,1.09881625930712e-02	-2.02442583682555e+01,3.56323403579821e+00	9.49962349312893e-01,-1.48128092240843e-01
1.00530999402313e+08	6.87483443645279e-01,-1.87674446432485e-01	1.37187490183430e-03,1.09906020430749e-02	-2.02440089617551e+01,3.56401612424872e+00	9.49951835076422e-01,-1.48160583083284e-01
1.00554150185604e+08	6.87469497747745e-01,-1.87715507857269e-01	1.37248123802314e-03,1.09930419882532e-02	-2.02437594327794e+01,3.56479841444478e+00	9.49941315701031e-01,-1.48193082755706e-01
1.00577306300174e+08	6.87455545927831e-01,-1.87756576580992e-01	1.37308783240895e-03,1.09954824362528e-02	-2.02435097985083e+01,3.56558084344574e+00	9.49930791863992e-01,-1.48225588171686e-01
1.00600467747249e+08	6.87441588091697e-01,-1.87797653118753e-01	1.37369468616654e-03,1.09979233868156e-02	-2.02432600581773e+01,3.56636341321947e+00	9.49920263585268e-01,-1.48258098922846e-01
1.00623634528060e+08	6.87427623986866e-01,-1.87838737937059e-01	1.37430181593579e-03,1.10003648365385e-02	-2.02430102037614e+01,3.56714615407827e+00	9.49909730462805e-01,-1.48290617351932e-01
1.00646806643832e+08	6.87413653983755e-01,-1.87879830054098e-01	1.37490920133362e-03,1.10028067899058e-02	-2.02427602452839e+01,3.56792902849478e+00	9.49899192951120e-01,-1.48323141026000e-01
1.00669984095796e+08	6.87399677638384e-01,-1.87920930972850e-01	1.37551686181727e-03,1.10052492426976e-02	-2.02425101729482e+01,3.56871207191099e+00	9.49888650673831e-01,-1.48355671577250e-01
1.00693166885180e+08	6.87385695162402e-01,-1.87962039663754e-01	1.37612479247770e-03,1.10076921962556e-02	-2.02422599895204e+01,3.56949527516175e+00	9.49878103663917e-01,-1.48388209324572e-01
1.00716355013213e+08	6.87371706695248e-01,-1.88003156169796e-01	1.37673297959976e-03,1.10101356534586e-02	-2.02420097014272e+01,3.57027861294098e+00	9.49867552294826e-01,-1.48420751812249e-01
1.00739548481125e+08	6.87357711788564e-01,-1.88044281447214e-01	1.37734145095177e-03,1.10125796085250e-02	-2.02417592952160e+01,3.57106213589260e+00	9.49856995914526e-01,-1.48453302749927e-01
1.00762747290145e+08	6.87343711122376e-01,-1.88085413519081e-01	1.37795017176669e-03,1.10150240691043e-02	-2.02415087880937e+01,3.57184578021754e+00	9.49846435266216e-01,-1.48485858357260e-01
1.00785951441503e+08	6.87329703941214e-01,-1.88126554889178e-01	1.37855917596642e-03,1.10174690277907e-02	-2.02412581630357e+01,3.57262960777105e+00	9.49835869682932e-01,-1.48518421620726e-01
1.00809160936429e+08	6.87315690690552e-01,-1.88167704056109e-01	1.37916844372992e-03,1.10199144890735e-02	-2.02410074300118e+01,3.57341358211765e+00	9.49825299551665e-01,-1.48550990811912e-01
1.00832375776155e+08	6.87301671465782e-01,-1.88208860505794e-01	1.37977797352280e-03,1.10223604534888e-02	-2.02407565899796e+01,3.57419770028160e+00	9.49814724864892e-01,-1.48583566242248e-01
1.00855595961910e+08	6.87287646055510e-01,-1.88250025270411e-01	1.38038776994086e-03,1.10248069199555e-02	-2.02405056403380e+01,3.57498197046542e+00	9.49804145600987e-01,-1.48616147498316e-01
1.00878821494927e+08	6.87273614359861e-01,-1.88291198323617e-01	1.38099784254787e-03,1.10272538866243e-02	-2.02402545766076e+01,3.57576640996886e+00	9.49793561500760e-01,-1.48648736255447e-01
1.00902052376435e+08	6.87259576748186e-01,-1.88332378690356e-01	1.38160817099798e-03,1.10297013579763e-02	-2.02400034087820e+01,3.57655098143010e+00	9.49782973017161e-01,-1.48681330088633e-01
1.00925288607668e+08	6.87245532694109e-01,-1.88373567854982e-01	1.38221878263287e-03,1.10321493281792e-02	-2.02397521233739e+01,3.57733573460719e+00	9.49772379561040e-01,-1.48713932012736e-01
1.00948530189857e+08	6.87231482722136e-01,-1.88414764344208e-01	1.38282964990055e-03,1.10345978033048e-02	-2.02395007339816e+01,3.57812061899347e+00	9.49761781730470e-01,-1.48746538928970e-01
1.00971777124234e+08	6.87217426460727e-01,-1.88455969144437e-01	1.38344079295297e-03,1.10370467791023e-02	-2.02392492307090e+01,3.57890567120317e+00	9.49751179080612e-01,-1.48779153178202e-01
1.00995029412032e+08	6.87203363852274e-01,-1.88497182792465e-01	1.38405220923509e-03,1.10394962560656e-02	-2.02389976145328e+01,3.57969088636323e+00	9.49740571734076e-01,-1.48811773676506e-01
1.01018287054483e+08	6.87189295377810e-01,-1.88538403256756e-01	1.38466388337102e-03,1.10419462379146e-02	-2.02387458935704e+01,3.58047623625625e+00	9.49729959906348e-01,-1.48844400089771e-01
1.01041550052821e+08	6.87175220473368e-01,-1.88579632560076e-01	1.38527583835382e-03,1.10443967195698e-02	-2.02384940561401e+01,3.58126176263044e+00	9.49719343177926e-01,-1.48877034048804e-01
1.01064818408279e+08	6.87161139663097e-01,-1.88620869232430e-01	1.38588804664260e-03,1.10468477071080e-02	-2.02382421158343e+01,3.58204741506243e+00	9.49708722146738e-01,-1.48909672458933e-01
1.01088092122091e+08	6.87147052534448e-01,-1.88662114250622e-01	1.38650053232722e-03,1.10492991954729e-02	-2.02379900609151e+01,3.58283323731067e+00	9.49698096261690e-01,-1.48942318351381e-01
1.01111371195490e+08	6.87132958949358e-01,-1.88703368129480e-01	1.38711330065251e-03,1.10517511835642e-02	-2.02377378886954e+01,3.58361923873189e+00	9.49687465432781e-01,-1.48974972020592e-01
1.01134655629712e+08	6.87118859547511e-01,-1.88744628889934e-01	1.38772632074588e-03,1.10542036782663e-02	-2.02374856145582e+01,3.58440536287271e+00	9.49676830297677e-01,-1.49007630387131e-01
1.01157945425989e+08	6.87104753839583e-01,-1.88785898033890e-01	1.38833961619578e-03,1.10566566744974e-02	-2.02372332267711e+01,3.58519165253704e+00	9.49666190370297e-01,-1.49040295784366e-01
1.01181240585558e+08	6.87090642154091e-01,-1.88827174580858e-01	1.38895317057797e-03,1.10591101759481e-02	-2.02369807334850e+01,3.58597807761817e+00	9.49655545996935e-01,-1.49072966483389e-01
1.01204541109654e+08	6.87076523845166e-01,-1.88868460532930e-01	1.38956701475284e-03,1.10615641759250e-02	-2.02367281193301e+01,3.58676469412978e+00	9.49644896545005e-01,-1.49105645495247e-01
1.01227846999511e+08	6.87062399863937e-01,-1.88909752915465e-01	1.39018110337858e-03,1.10640186845170e-02	-2.02364754069241e+01,3.58755141932668e+00	9.49634242943423e-01,-1.49138328391738e-01
1.01251158256365e+08	6.87048269173006e-01,-1.88951054704240e-01	1.39079548957414e-03,1.10664736902357e-02	-2.02362225700055e+01,3.58833834973143e+00	9.49623584056002e-01,-1.49171020909761e-01
1.01274474881453e+08	6.87034132687061e-01,-1.88992363462148e-01	1.39141012357812e-03,1.10689292039527e-02	-2.02359696330364e+01,3.58912539456908e+00	9.49612920983361e-01,-1.49203717236149e-01
1.01297796876010e+08	6.87019989563553e-01,-1.89033681679442e-01	1.39202504742219e-03,1.10713852165640e-02	-2.02357165751826e+01,3.58991263014014e+00	9.49602252840523e-01,-1.49236421746422e-01
1.01321124241273e+08	6.87005840401952e-01,-1.89075007369692e-01	1.39264023413196e-03,1.10738417341647e-02	-2.02354634099925e+01,3.59070000718370e+00	9.49591580158577e-01,-1.49269132053538e-01
1.01344456978479e+08	6.86991685178463e-01,-1.89116340541969e-01	1.39325568568184e-03,1.10762987564506e-02	-2.02352101365475e+01,3.59148752911484e+00	9.49580902886802e-01,-1.49301848471741e-01
1.01367795088864e+08	6.86977523596817e-01,-1.89157682216874e-01	1.39387141465584e-03,1.10787562806946e-02	-2.02349567484888e+01,3.59227521862224e+00	9.49570220787495e-01,-1.49334571978301e-01
1.01391138573667e+08	6.86963356024369e-01,-1.89199031431851e-01	1.39448740078134e-03,1.10812143113832e-02	-2.02347032557748e+01,3.59306303866221e+00	9.49559534312598e-01,-1.49367300163994e-01
1.01414487434125e+08	6.86949182005069e-01,-1.89240389158309e-01	1.39510367222468e-03,1.10836728426070e-02	-2.02344496447514e+01,3.59385104025642e+00	9.49548842801061e-01,-1.49400036756893e-01
1.01437841671476e+08	6.86935001789723e-01,-1.89281754946665e-01	1.39572021208224e-03,1.10861318780359e-02	-2.02341959235617e+01,3.59463919248111e+00	9.49538146663919e-01,-1.49432779336571e-01
1.01461201286958e+08	6.86920815509532e-01,-1.89323128310392e-01	1.39633701512873e-03,1.10885914189615e-02	-2.02339420948890e+01,3.59542748566701e+00	9.49527445995539e-01,-1.49465527546201e-01
1.01484566281809e+08	6.86906622827280e-01,-1.89364510259888e-01	1.39695409788998e-03,1.10910514618461e-02	-2.02336881505257e+01,3.59621594964063e+00	9.49516740451266e-01,-1.49498283053524e-01
1.01507936657269e+08	6.86892423913692e-01,-1.89405900322072e-01	1.39757145126241e-03,1.10935120087721e-02	-2.02334340949692e+01,3.59700456767749e+00	9.49506030230902e-01,-1.49531044815347e-01
1.01531312414576e+08	6.86878218899498e-01,-1.89447298012366e-01	1.39818907004092e-03,1.10959730610219e-02	-2.02331799308834e+01,3.59779333014868e+00	9.49495315427548e-01,-1.49563812476451e-01
1.01554693554969e+08	6.86864007446746e-01,-1.89488704342657e-01	1.39880697078555e-03,1.10984346150477e-02	-2.02329256500436e+01,3.59858226691901e+00	9.49484595695880e-01,-1.49596587706487e-01
1.01578080079689e+08	6.86849790194384e-01,-1.89530117346053e-01	1.39942512264782e-03,1.11008966777606e-02	-2.02326712678251e+01,3.59937132183454e+00	9.49473871673648e-01,-1.49629367440436e-01
1.01601471989976e+08	6.86835566375283e-01,-1.89571539543827e-01	1.40004356007568e-03,1.11033592415782e-02	-2.02324167669398e+01,3.60016055719412e+00	9.49463142683626e-01,-1.49662154686623e-01
1.01624869287069e+08	6.86821336352178e-01,-1.89612969431188e-01	1.40066227117881e-03,1.11058223093980e-02	-2.02321621536362e+01,3.60094995125201e+00	9.49452408897762e-01,-1.49694949117356e-01
1.01648271972209e+08	6.86807100102119e-01,-1.89654407573860e-01	1.40128124971037e-03,1.11082858824706e-02	-2.02319074306148e+01,3.60173949247451e+00	9.49441670541368e-01,-1.49727748981880e-01
1.01671680046637e+08	6.86792857518807e-01,-1.89695853963817e-01	1.40190050556328e-03,1.11107499588619e-02	-2.02316525932362e+01,3.60252919862079e+00	9.49430927348517e-01,-1.49760555978082e-01
1.01695093511594e+08	6.86778608928138e-01,-1.89737307634841e-01	1.40252002242352e-03,1.11132145422578e-02	-2.02313976495992e+01,3.60331903993930e+00	9.49420179663743e-01,-1.49793368394326e-01
1.01718512368321e+08	6.86764353874199e-01,-1.89778770113030e-01	1.40313982028524e-03,1.11156796282770e-02	-2.02311425896421e+01,3.60410905246499e+00	9.49409427100555e-01,-1.49826187892369e-01
1.01741936618060e+08	6.86750092446114e-01,-1.89820240907080e-01	1.40375989792038e-03,1.11181452173890e-02	-2.02308874141682e+01,3.60489923378449e+00	9.49398669644885e-01,-1.49859014810831e-01
1.01765366262053e+08	6.86735825009697e-01,-1.89861719064229e-01	1.40438023511306e-03,1.11206113140805e-02	-2.02306321331013e+01,3.60568954709450e+00	9.49387907747185e-01,-1.49891846752030e-01
1.01788801301542e+08	6.86721551341149e-01,-1.89903205090598e-01	1.40500084517200e-03,1.11230779155907e-02	-2.02303767399727e+01,3.60648001631966e+00	9.49377141100518e-01,-1.49924685405594e-01
1.01812241737769e+08	6.86707271179718e-01,-1.89944700029183e-01	1.40562173697634e-03,1.11255450199377e-02	-2.02301212301567e+01,3.60727065732798e+00	9.49366369569896e-01,-1.49957531074336e-01
1.01835687571978e+08	6.86692985083886e-01,-1.89986201894853e-01	1.40624288750450e-03,1.11280126324408e-02	-2.02298656153564e+01,3.60806142828367e+00	9.49355593579868e-01,-1.49990382075755e-01
1.01859138805411e+08	6.86678692636056e-01,-1.90027712230022e-01	1.40686431291768e-03,1.11304807494987e-02	-2.02296098873036e+01,3.60885235823549e+00	9.49344812848878e-01,-1.50023239388466e-01
1.01882595439312e+08	6.86664393571260e-01,-1.90069231530607e-01	1.40748603048667e-03,1.11329493675297e-02	-2.02293540376692e+01,3.60964347823606e+00	9.49334026962319e-01,-1.50056105391648e-01
1.01906057474924e+08	6.86650088451256e-01,-1.90110758361654e-01	1.40810800884132e-03,1.11354184934447e-02	-2.02290980818390e+01,3.61043473134938e+00	9.49323236623593e-01,-1.50088976330871e-01
1.01929524913492e+08	6.86635777521064e-01,-1.90152291737771e-01	1.40873023951578e-03,1.11378881293226e-02	-2.02288420242247e+01,3.61122610211196e+00	9.49312441963154e-01,-1.50121851875248e-01
1.01952997756260e+08	6.86621459694961e-01,-1.90193835184383e-01	1.40935277175080e-03,1.11403582642649e-02	-2.02285858401487e+01,3.61201767932985e+00	9.49301642006968e-01,-1.50154736392349e-01
1.01976476004471e+08	6.86607135570971e-01,-1.90235386732360e-01	1.40997557863927e-03,1.11428289043903e-02	-2.02283295431290e+01,3.61280941417623e+00	9.49290837284969e-01,-1.50187627516463e-01
1.01999959659371e+08	6.86592805433632e-01,-1.90276945410689e-01	1.41059864783101e-03,1.11453000525764e-02	-2.02280731393980e+01,3.61360128415975e+00	9.49280028033651e-01,-1.50220524231847e-01
1.02023448722206e+08	6.86578468980276e-01,-1.90318512254249e-01	1.41122199220021e-03,1.11477717060206e-02	-2.02278166224639e+01,3.61439331234880e+00	9.49269214010758e-01,-1.50253427535302e-01
1.02046943194219e+08	6.86564126378465e-01,-1.90360086803879e-01	1.41184560277575e-03,1.11502438667837e-02	-2.02275599967516e+01,3.61518548235579e+00	9.49258395413070e-01,-1.50286336399588e-01
1.02070443076658e+08	6.86549777441753e-01,-1.90401669584916e-01	1.41246948908331e-03,1.11527165328709e-02	-2.02273032575582e+01,3.61597781119611e+00	9.49247572037212e-01,-1.50319251835165e-01
1.02093948370767e+08	6.86535422023513e-01,-1.90443261135584e-01	1.41309365674657e-03,1.11551897030891e-02	-2.02270464020110e+01,3.61677030882241e+00	9.49236743786271e-01,-1.50352174166032e-01
1.02117459077794e+08	6.86521060013433e-01,-1.90484861458946e-01	1.41371811586035e-03,1.11576633754485e-02	-2.02267894253695e+01,3.61756299326194e+00	9.49225910389943e-01,-1.50385105102775e-01
1.02140975198984e+08	6.86506692286754e-01,-1.90526468130022e-01	1.41434282048136e-03,1.11601375601273e-02	-2.02265323503067e+01,3.61835578143336e+00	9.49215072845089e-01,-1.50418039549736e-01
1.02164496735585e+08	6.86492318185241e-01,-1.90568083171244e-01	1.41496780204566e-03,1.11626122502421e-02	-2.02262751611639e+01,3.61914872986704e+00	9.49204230507511e-01,-1.50450980543503e-01
1.02188023688843e+08	6.86477937598092e-01,-1.90609706587222e-01	1.41559307067477e-03,1.11650874437939e-02	-2.02260178531824e+01,3.61994185663120e+00	9.49193383105840e-01,-1.50483929796781e-01
1.02211556060006e+08	6.86463550538150e-01,-1.90651338969318e-01	1.41621861636230e-03,1.11675631428111e-02	-2.02257604308212e+01,3.62073514346023e+00	9.49182530969819e-01,-1.50516884888984e-01
1.02235093850322e+08	6.86449157482600e-01,-1.90692978318035e-01	1.41684442397839e-03,1.11700393510024e-02	-2.02255029020759e+01,3.62152856292448e+00	9.49171674308693e-01,-1.50549845524086e-01
1.02258637061039e+08	6.86434758086232e-01,-1.90734625661303e-01	1.41747051042265e-03,1.11725160647223e-02	-2.02252452585549e+01,3.62232214529561e+00	9.49160812770572e-01,-1.50582813391854e-01
1.02282185693404e+08	6.86420352438349e-01,-1.90776281068926e-01	1.41809686624354e-03,1.11749932860100e-02	-2.02249875046814e+01,3.62311587334327e+00	9.49149946618026e-01,-1.50615786773235e-01
1.02305739748666e+08	6.86405940310147e-01,-1.90817945059059e-01	1.41872350499023e-03,1.11774710120343e-02	-2.02247296338641e+01,3.62390977128954e+00	9.49139075538916e-01,-1.50648767372236e-01
1.02329299228075e+08	6.86391521669971e-01,-1.90859617664811e-01	1.41935042899801e-03,1.11799492423999e-02	-2.02244716449956e+01,3.62470384314205e+00	9.49128199474570e-01,-1.50681755531660e-01
1.02352864132878e+08	6.86377096723630e-01,-1.90901298447071e-01	1.41997762545924e-03,1.11824279799652e-02	-2.02242135443015e+01,3.62549806564142e+00	9.49117318727357e-01,-1.50714749547663e-01
1.02376434464327e+08	6.86362665988122e-01,-1.90942985422956e-01	1.42060507534465e-03,1.11849072292501e-02	-2.02239553416057e+01,3.62629240438145e+00	9.49106433612853e-01,-1.50747748441667e-01
