# Hz S RI R 50
! Freq.	S11(V2)	S12(V2)	S21(V2)	S22(V2)
1.00000000000000e+09	-2.11223373027834e-01 -4.74119030020307e-01	4.32957452463604e-02 5.02815487839230e-02	-4.06818868991968e+00 1.05930359907715e+01	2.65322888338055e-01 -4.26896999370031e-01
1.00023028502082e+09	-2.11347985423395e-01 -4.74030549208628e-01	4.33028826478289e-02 5.02846078961192e-02	-4.06590093733632e+00 1.05919454770282e+01	2.65224827548304e-01 -4.26846410206421e-01
1.00046062307284e+09	-2.11472572749677e-01 -4.73942038290960e-01	4.33100199783062e-02 5.02876668782316e-02	-4.06361355513347e+00 1.05908545543758e+01	2.65126781799677e-01 -4.26795804993325e-01
1.00069101416826e+09	-2.11597133514942e-01 -4.73853498207305e-01	4.33171570452568e-02 5.02907261333119e-02	-4.06132661963117e+00 1.05897632266022e+01	2.65028753568507e-01 -4.26745181618784e-01
1.00092145831930e+09	-2.11721667665052e-01 -4.73764928991394e-01	4.33242938432201e-02 5.02937856737332e-02	-4.05904013315110e+00 1.05886714940411e+01	2.64930742926474e-01 -4.26694540037576e-01
1.00115195553817e+09	-2.11846175145838e-01 -4.73676330676986e-01	4.33314303667175e-02 5.02968455118520e-02	-4.05675409801138e+00 1.05875793570230e+01	2.64832749944771e-01 -4.26643880204142e-01
1.00138250583710e+09	-2.11970658075844e-01 -4.73587704452392e-01	4.33385666659265e-02 5.02999054913154e-02	-4.05446848665951e+00 1.05864868105918e+01	2.64734775436666e-01 -4.26593200012239e-01
1.00161310922831e+09	-2.12095115656836e-01 -4.73499048289485e-01	4.33457028666837e-02 5.03029654025158e-02	-4.05218325744789e+00 1.05853938568470e+01	2.64636816334360e-01 -4.26542503542357e-01
1.00184376572403e+09	-2.12219547146093e-01 -4.73410365189229e-01	4.33528386452261e-02 5.03060258705037e-02	-4.04989853055629e+00 1.05843004978619e+01	2.64538878247878e-01 -4.26491784560031e-01
1.00207447533648e+09	-2.12343951005508e-01 -4.73321651063844e-01	4.33599742587642e-02 5.03090864636553e-02	-4.04761422031918e+00 1.05832067375141e+01	2.64440954968929e-01 -4.26441051269675e-01
1.00230523807790e+09	-2.12468329350013e-01 -4.73232907101187e-01	4.33671097574227e-02 5.03121470256010e-02	-4.04533029924463e+00 1.05821125708199e+01	2.64343047313392e-01 -4.26390301564324e-01
1.00253605396052e+09	-2.12592683610457e-01 -4.73144137454510e-01	4.33742448730928e-02 5.03152080127376e-02	-4.04304685759287e+00 1.05810179945985e+01	2.64245161629693e-01 -4.26339527152670e-01
1.00276692299659e+09	-2.12717010076680e-01 -4.73055336884115e-01	4.33813798073461e-02 5.03182691620598e-02	-4.04076383958776e+00 1.05799230179872e+01	2.64147290969598e-01 -4.26288738295711e-01
1.00299784519833e+09	-2.12841309439463e-01 -4.72966507483871e-01	4.33885144234597e-02 5.03213307079492e-02	-4.03848129148265e+00 1.05788276395805e+01	2.64049438541996e-01 -4.26237930825742e-01
1.00322882057800e+09	-2.12965585233671e-01 -4.72877649532503e-01	4.33956489583588e-02 5.03243921033497e-02	-4.03619911208115e+00 1.05777318508165e+01	2.63951602770453e-01 -4.26187104700178e-01
1.00345984914784e+09	-2.13089833815460e-01 -4.72788762818135e-01	4.34027831641978e-02 5.03274539200068e-02	-4.03391740721899e+00 1.05766356609189e+01	2.63853785374182e-01 -4.26136259871614e-01
1.00369093092010e+09	-2.13214054386798e-01 -4.72699845316120e-01	4.34099171668201e-02 5.03305159481729e-02	-4.03163613528290e+00 1.05755390719437e+01	2.63755983288484e-01 -4.26085400414706e-01
1.00392206590702e+09	-2.13338251968460e-01 -4.72610901421243e-01	4.34170509405490e-02 5.03335780849685e-02	-4.02935528296595e+00 1.05744420718705e+01	2.63658201210525e-01 -4.26034518047452e-01
1.00415325412088e+09	-2.13462422177357e-01 -4.72521928864064e-01	4.34241843688957e-02 5.03366406800357e-02	-4.02707491209246e+00 1.05733446716777e+01	2.63560437719722e-01 -4.25983616842723e-01
1.00438449557391e+09	-2.13586565630622e-01 -4.72432924713437e-01	4.34313177644619e-02 5.03397031328584e-02	-4.02479490747430e+00 1.05722468697730e+01	2.63462687366940e-01 -4.25932702933777e-01
1.00461579027839e+09	-2.13710684513359e-01 -4.72343895175996e-01	4.34384507280000e-02 5.03427661220889e-02	-4.02251540304122e+00 1.05711486613991e+01	2.63364959622125e-01 -4.25881763921434e-01
1.00484713824658e+09	-2.13834776530520e-01 -4.72254834112458e-01	4.34455836478574e-02 5.03458289937245e-02	-4.02023626952861e+00 1.05700500519606e+01	2.63267245160032e-01 -4.25830812113936e-01
1.00507853949074e+09	-2.13958840961506e-01 -4.72165744521634e-01	4.34527162005935e-02 5.03488923729173e-02	-4.01795762666217e+00 1.05689510437448e+01	2.63169549567887e-01 -4.25779841288508e-01
1.00530999402313e+09	-2.14082882074169e-01 -4.72076628735469e-01	4.34598484917235e-02 5.03519559348165e-02	-4.01567941732542e+00 1.05678516264350e+01	2.63071874410957e-01 -4.25728847287461e-01
1.00554150185604e+09	-2.14206894746705e-01 -4.71987482432115e-01	4.34669805361347e-02 5.03550198067844e-02	-4.01340165938380e+00 1.05667518127046e+01	2.62974215133751e-01 -4.25677838295631e-01
1.00577306300174e+09	-2.14330883243250e-01 -4.71898307943052e-01	4.34741124393031e-02 5.03580836639712e-02	-4.01112429578781e+00 1.05656515922112e+01	2.62876573304778e-01 -4.25626810154870e-01
1.00600467747249e+09	-2.14454843192565e-01 -4.71809103004864e-01	4.34812440848860e-02 5.03611478558220e-02	-4.00884738819912e+00 1.05645509759558e+01	2.62778947497693e-01 -4.25575766931959e-01
1.00623634528060e+09	-2.14578778856229e-01 -4.71719869947740e-01	4.34883755783412e-02 5.03642120575202e-02	-4.00657087960380e+00 1.05634499535908e+01	2.62681339282445e-01 -4.25524704470152e-01
1.00646806643832e+09	-2.14702686616415e-01 -4.71630608564776e-01	4.34955066721535e-02 5.03672768406720e-02	-4.00429487538619e+00 1.05623485344945e+01	2.62583750357816e-01 -4.25473622722622e-01
1.00669984095796e+09	-2.14826569982620e-01 -4.71541319129128e-01	4.35026376029740e-02 5.03703416583083e-02	-4.00201927477615e+00 1.05612467099587e+01	2.62486179166762e-01 -4.25422521647529e-01
1.00693166885180e+09	-2.14950426744533e-01 -4.71452000526783e-01	4.35097683099405e-02 5.03734066912652e-02	-3.99974410972262e+00 1.05601444856560e+01	2.62388625030128e-01 -4.25371403254909e-01
1.00716355013213e+09	-2.15074256848867e-01 -4.71362652791466e-01	4.35168987876473e-02 5.03764719518478e-02	-3.99746938252553e+00 1.05590418619227e+01	2.62291088018946e-01 -4.25320267499925e-01
1.00739548481125e+09	-2.15198062395271e-01 -4.71273277103052e-01	4.35240290860580e-02 5.03795372838355e-02	-3.99519506588570e+00 1.05579388337384e+01	2.62193568955495e-01 -4.25269112283512e-01
1.00762747290145e+09	-2.15321839024046e-01 -4.71183871202677e-01	4.35311590889875e-02 5.03826030365394e-02	-3.99292122129599e+00 1.05568354121447e+01	2.62096066407145e-01 -4.25217941668914e-01
1.00785951441503e+09	-2.15445591739750e-01 -4.71094439469654e-01	4.35382887705966e-02 5.03856691075030e-02	-3.99064783557581e+00 1.05557315851726e+01	2.61998585071397e-01 -4.25166747394435e-01
1.00809160936429e+09	-2.15569316832264e-01 -4.71004976684147e-01	4.35454183324738e-02 5.03887352330027e-02	-3.98837485317909e+00 1.05546273617104e+01	2.61901118019557e-01 -4.25115539687869e-01
1.00832375776155e+09	-2.15693017150929e-01 -4.70915486078638e-01	4.35525476933736e-02 5.03918014790998e-02	-3.98610229055553e+00 1.05535227351321e+01	2.61803669198885e-01 -4.25064312341875e-01
1.00855595961910e+09	-2.15816688342655e-01 -4.70825965396834e-01	4.35596767372019e-02 5.03948681950265e-02	-3.98383020910129e+00 1.05524177165024e+01	2.61706237173162e-01 -4.25013069417694e-01
1.00878821494927e+09	-2.15940336802565e-01 -4.70736418106149e-01	4.35668056245568e-02 5.03979348876597e-02	-3.98155852246678e+00 1.05513122900623e+01	2.61608824272913e-01 -4.24961804712584e-01
1.00902052376435e+09	-2.16063956031114e-01 -4.70646840806706e-01	4.35739341840625e-02 5.04010020746766e-02	-3.97928732155299e+00 1.05502064722547e+01	2.61511428307193e-01 -4.24910524339941e-01
1.00925288607668e+09	-2.16187552419137e-01 -4.70557236964027e-01	4.35810625762547e-02 5.04040692629895e-02	-3.97701652006643e+00 1.05491002473061e+01	2.61414051608280e-01 -4.24859222098532e-01
1.00948530189857e+09	-2.16311119471961e-01 -4.70467603180135e-01	4.35881906298332e-02 5.04071369702315e-02	-3.97474620883977e+00 1.05479936316781e+01	2.61316691982904e-01 -4.24807904100434e-01
1.00971777124234e+09	-2.16434660675483e-01 -4.70377939724311e-01	4.35953185811448e-02 5.04102046494428e-02	-3.97247628750114e+00 1.05468866165068e+01	2.61219347891612e-01 -4.24756570301805e-01
1.00995029412032e+09	-2.16558176730487e-01 -4.70288248681321e-01	4.36024462936273e-02 5.04132725352308e-02	-3.97020680198896e+00 1.05457792005743e+01	2.61122022524067e-01 -4.24705216553363e-01
1.01018287054483e+09	-2.16681665439588e-01 -4.70198528941679e-01	4.36095737066324e-02 5.04163408083019e-02	-3.96793778406262e+00 1.05446713896071e+01	2.61024715194502e-01 -4.24653844862486e-01
1.01041550052821e+09	-2.16805128894516e-01 -4.70108781681191e-01	4.36167008700258e-02 5.04194093125008e-02	-3.96566920651818e+00 1.05435631785639e+01	2.60927426727943e-01 -4.24602453133942e-01
1.01064818408279e+09	-2.16928566285104e-01 -4.70019004882417e-01	4.36238279095399e-02 5.04224778377310e-02	-3.96340102805661e+00 1.05424545693049e+01	2.60830154078503e-01 -4.24551045426252e-01
1.01088092122091e+09	-2.17051976172692e-01 -4.69929199487669e-01	4.36309546334233e-02 5.04255467870203e-02	-3.96113332399994e+00 1.05413455660345e+01	2.60732899675706e-01 -4.24499619642783e-01
1.01111371195490e+09	-2.17175360647401e-01 -4.69839366671821e-01	4.36380810915393e-02 5.04286160042424e-02	-3.95886606716677e+00 1.05402361637109e+01	2.60635664345622e-01 -4.24448173689504e-01
1.01134655629712e+09	-2.17298718898308e-01 -4.69749504418257e-01	4.36452074096073e-02 5.04316852792564e-02	-3.95659921627955e+00 1.05391263641760e+01	2.60538445043619e-01 -4.24396711623203e-01
1.01157945425989e+09	-2.17422049490534e-01 -4.69659613669442e-01	4.36523333959258e-02 5.04347550150845e-02	-3.95433284658822e+00 1.05380161716630e+01	2.60441244195748e-01 -4.24345231348223e-01
1.01181240585558e+09	-2.17545354512463e-01 -4.69569695599300e-01	4.36594591003455e-02 5.04378250556224e-02	-3.95206693093362e+00 1.05369055811272e+01	2.60344062628892e-01 -4.24293730771599e-01
1.01204541109654e+09	-2.17668632393465e-01 -4.69479746143412e-01	4.36665847796778e-02 5.04408949682545e-02	-3.94980138454019e+00 1.05357945958737e+01	2.60246894187899e-01 -4.24242218047092e-01
1.01227846999511e+09	-2.17791885357444e-01 -4.69389771481428e-01	4.36737100352561e-02 5.04439654325317e-02	-3.94753634026111e+00 1.05346832117959e+01	2.60149748279596e-01 -4.24190680834041e-01
1.01251158256365e+09	-2.17915111833664e-01 -4.69299767549208e-01	4.36808351238908e-02 5.04470360158231e-02	-3.94527171332521e+00 1.05335714321942e+01	2.60052618749137e-01 -4.24139127285684e-01
1.01274474881453e+09	-2.18038313144562e-01 -4.69209733471484e-01	4.36879602264447e-02 5.04501063395742e-02	-3.94300743317639e+00 1.05324592534521e+01	2.59955503317148e-01 -4.24087559406231e-01
1.01297796876010e+09	-2.18161486485195e-01 -4.69119671099888e-01	4.36950849650581e-02 5.04531771975829e-02	-3.94074364780517e+00 1.05313466837930e+01	2.59858406754758e-01 -4.24035973052473e-01
1.01321124241273e+09	-2.18284631806102e-01 -4.69029580468253e-01	4.37022093344001e-02 5.04562486020758e-02	-3.93848035942956e+00 1.05302337235764e+01	2.59761329129086e-01 -4.23984368180489e-01
1.01344456978479e+09	-2.18407753325002e-01 -4.68939463886224e-01	4.37093334394135e-02 5.04593202286973e-02	-3.93621751161828e+00 1.05291203623334e+01	2.59664272030110e-01 -4.23932740652649e-01
1.01367795088864e+09	-2.18530847332006e-01 -4.68849316154746e-01	4.37164574816978e-02 5.04623918129763e-02	-3.93395504906408e+00 1.05280066086945e+01	2.59567228549472e-01 -4.23881100662105e-01
1.01391138573667e+09	-2.18653915298098e-01 -4.68759141401242e-01	4.37235811937967e-02 5.04654638121520e-02	-3.93169306094301e+00 1.05268924601276e+01	2.59470204973404e-01 -4.23829439975088e-01
1.01414487434125e+09	-2.18776957172062e-01 -4.68668939658631e-01	4.37307045703508e-02 5.04685362384551e-02	-3.92943154949134e+00 1.05257779169865e+01	2.59373201369320e-01 -4.23777758548419e-01
1.01437841671476e+09	-2.18899971377308e-01 -4.68578706868052e-01	4.37378278681008e-02 5.04716086590472e-02	-3.92717043011160e+00 1.05246629824576e+01	2.59276211593079e-01 -4.23726064524601e-01
1.01461201286958e+09	-2.19022959387434e-01 -4.68488447155288e-01	4.37449508196239e-02 5.04746815312137e-02	-3.92490979190762e+00 1.05235476540489e+01	2.59179241926631e-01 -4.23674349673367e-01
1.01484566281809e+09	-2.19145921753547e-01 -4.68398157598607e-01	4.37520737367135e-02 5.04777542538240e-02	-3.92264952105657e+00 1.05224319294921e+01	2.59082286991502e-01 -4.23622620089572e-01
1.01507936657269e+09	-2.19268857820482e-01 -4.68307841186061e-01	4.37591962968712e-02 5.04808274524499e-02	-3.92038973589553e+00 1.05213158117457e+01	2.58985352303821e-01 -4.23570869591024e-01
1.01531312414576e+09	-2.19391766773583e-01 -4.68217495905799e-01	4.37663186257873e-02 5.04839009167399e-02	-3.91813039527183e+00 1.05201993025596e+01	2.58888434827178e-01 -4.23519102225329e-01
1.01554693554969e+09	-2.19514649326428e-01 -4.68127123836067e-01	4.37734405871232e-02 5.04869748814879e-02	-3.91587154479849e+00 1.05190824008982e+01	2.58791537733347e-01 -4.23467313858570e-01
1.01578080079689e+09	-2.19637506024667e-01 -4.68036722056131e-01	4.37805624925951e-02 5.04900487455014e-02	-3.91361307076541e+00 1.05179651044345e+01	2.58694655649569e-01 -4.23415510581998e-01
1.01601471989976e+09	-2.19760335454431e-01 -4.67946291509102e-01	4.37876841508220e-02 5.04931229117904e-02	-3.91135504802975e+00 1.05168474175647e+01	2.58597790983765e-01 -4.23363690306146e-01
1.01624869287069e+09	-2.19883137564724e-01 -4.67855832228785e-01	4.37948055564544e-02 5.04961973925317e-02	-3.90909747883145e+00 1.05157293406312e+01	2.58500943803935e-01 -4.23311852986366e-01
1.01648271972209e+09	-2.20005914428870e-01 -4.67765345382753e-01	4.38019267592015e-02 5.04992720317452e-02	-3.90684033622016e+00 1.05146108685416e+01	2.58404114944950e-01 -4.23259996535528e-01
1.01671680046637e+09	-2.20128664637520e-01 -4.67674831913463e-01	4.38090475677060e-02 5.05023472324392e-02	-3.90458369494922e+00 1.05134920057313e+01	2.58307306808731e-01 -4.23208118866151e-01
1.01695093511594e+09	-2.20251388729965e-01 -4.67584288901365e-01	4.38161682936400e-02 5.05054223933745e-02	-3.90232744144996e+00 1.05123727498101e+01	2.58210514030498e-01 -4.23156226065914e-01
1.01718512368321e+09	-2.20374085298421e-01 -4.67493717289803e-01	4.38232887456828e-02 5.05084979175373e-02	-3.90007165045943e+00 1.05112531052166e+01	2.58113739012043e-01 -4.23104316046577e-01
1.01741936618060e+09	-2.20496755645939e-01 -4.67403116202864e-01	4.38304091044693e-02 5.05115734262898e-02	-3.89781625177633e+00 1.05101330681796e+01	2.58016979490963e-01 -4.23052390806984e-01
1.01765366262053e+09	-2.20619401255319e-01 -4.67312489758268e-01	4.38375291027057e-02 5.05146493771529e-02	-3.89556133422357e+00 1.05090126363756e+01	2.57920241732043e-01 -4.23000442133026e-01
1.01788801301542e+09	-2.20742019188256e-01 -4.67221834814290e-01	4.38446488111134e-02 5.05177257278134e-02	-3.89330688588641e+00 1.05078918169528e+01	2.57823521937370e-01 -4.22948476109475e-01
1.01812241737769e+09	-2.20864608626105e-01 -4.67131149363286e-01	4.38517683553234e-02 5.05208022677242e-02	-3.89105286573088e+00 1.05067706115722e+01	2.57726817077747e-01 -4.22896496775346e-01
1.01835687571978e+09	-2.20987174523238e-01 -4.67040437743760e-01	4.38588877089591e-02 5.05238788955164e-02	-3.88879926103011e+00 1.05056490083431e+01	2.57630131856258e-01 -4.22844495920274e-01
1.01859138805411e+09	-2.21109711822205e-01 -4.66949695684661e-01	4.38660068877600e-02 5.05269557368909e-02	-3.88654608901612e+00 1.05045270198362e+01	2.57533461708097e-01 -4.22792481665915e-01
1.01882595439312e+09	-2.21232224128918e-01 -4.66858928432596e-01	4.38731256794564e-02 5.05300330813423e-02	-3.88429340927759e+00 1.05034046383388e+01	2.57436813660243e-01 -4.22740443762978e-01
1.01906057474924e+09	-2.21354707737172e-01 -4.66768130808464e-01	4.38802442857201e-02 5.05331106636956e-02	-3.88204116667656e+00 1.05022818722641e+01	2.57340180821358e-01 -4.22688392372795e-01
1.01929524913492e+09	-2.21477167597331e-01 -4.66677307147230e-01	4.38873626801189e-02 5.05361883826729e-02	-3.87978934851525e+00 1.05011587097303e+01	2.57243567894240e-01 -4.22636319289419e-01
1.01952997756260e+09	-2.21599598657004e-01 -4.66586453181413e-01	4.38944808784596e-02 5.05392663638539e-02	-3.87753797197165e+00 1.05000351633040e+01	2.57146970312990e-01 -4.22584232630179e-01
1.01976476004471e+09	-2.21722003751397e-01 -4.66495572114662e-01	4.39015987994215e-02 5.05423446740754e-02	-3.87528705340467e+00 1.04989112265875e+01	2.57050392009109e-01 -4.22532126231169e-01
1.01999959659371e+09	-2.21844382058064e-01 -4.66404661940631e-01	4.39087165686148e-02 5.05454231027300e-02	-3.87303655187067e+00 1.04977869011959e+01	2.56953829958728e-01 -4.22480004128296e-01
1.02023448722206e+09	-2.21966735637303e-01 -4.66313723821933e-01	4.39158342355929e-02 5.05485014939194e-02	-3.87078644059826e+00 1.04966621819876e+01	2.56857285003095e-01 -4.22427864238290e-01
1.02046943194219e+09	-2.22089060419739e-01 -4.66222760521619e-01	4.39229512377408e-02 5.05515810323023e-02	-3.86853693833286e+00 1.04955370819989e+01	2.56760764163989e-01 -4.22375700400823e-01
1.02070443076658e+09	-2.22211357491076e-01 -4.66131766175721e-01	4.39300682031512e-02 5.05546605027757e-02	-3.86628781662418e+00 1.04944115956371e+01	2.56664256691474e-01 -4.22323524806444e-01
1.02093948370767e+09	-2.22333629681931e-01 -4.66040743984903e-01	4.39371850504440e-02 5.05577399722437e-02	-3.86403909187753e+00 1.04932857165017e+01	2.56567766517845e-01 -4.22271331294599e-01
1.02117459077794e+09	-2.22455876939076e-01 -4.65949693981971e-01	4.39443017742902e-02 5.05608194528629e-02	-3.86179076636175e+00 1.04921594449276e+01	2.56471293712626e-01 -4.22219119821848e-01
1.02140975198984e+09	-2.22578094433300e-01 -4.65858616892735e-01	4.39514179431653e-02 5.05638999064711e-02	-3.85954301545816e+00 1.04910327952835e+01	2.56374842198216e-01 -4.22166888307257e-01
1.02164496735585e+09	-2.22700286119415e-01 -4.65767510020459e-01	4.39585341089056e-02 5.05669801726777e-02	-3.85729562511760e+00 1.04899057551282e+01	2.56278405099496e-01 -4.22114642820369e-01
1.02188023688843e+09	-2.22822451386551e-01 -4.65676376346025e-01	4.39656499496443e-02 5.05700608773057e-02	-3.85504871274437e+00 1.04887783278595e+01	2.56181987885180e-01 -4.22062377205196e-01
1.02211556060006e+09	-2.22944589410247e-01 -4.65585213865617e-01	4.39727655909727e-02 5.05731418096333e-02	-3.85280223746075e+00 1.04876505150437e+01	2.56085587535669e-01 -4.22010095492779e-01
1.02235093850322e+09	-2.23066703021056e-01 -4.65494025775545e-01	4.39798809515400e-02 5.05762230367021e-02	-3.85055621562250e+00 1.04865223103338e+01	2.55989207979414e-01 -4.21957791530010e-01
1.02258637061039e+09	-2.23188789840191e-01 -4.65402805999319e-01	4.39869964186330e-02 5.05793039020232e-02	-3.84831052029596e+00 1.04853937176612e+01	2.55892840030434e-01 -4.21905477492502e-01
1.02282185693404e+09	-2.23310847383436e-01 -4.65311561374246e-01	4.39941111683533e-02 5.05823860359954e-02	-3.84606545571649e+00 1.04842647479201e+01	2.55796496850585e-01 -4.21853139082312e-01
1.02305739748666e+09	-2.23432878811179e-01 -4.65220287166661e-01	4.40012258831927e-02 5.05854680553305e-02	-3.84382076512911e+00 1.04831353897238e+01	2.55700168497170e-01 -4.21800786437214e-01
1.02329299228075e+09	-2.23554884847482e-01 -4.65128985445550e-01	4.40083404270017e-02 5.05885501950527e-02	-3.84157649382597e+00 1.04820056422269e+01	2.55603858122907e-01 -4.21748415441940e-01
1.02352864132878e+09	-2.23676865440563e-01 -4.65037656243764e-01	4.40154547944783e-02 5.05916324672886e-02	-3.83933264404510e+00 1.04808755057726e+01	2.55507565795848e-01 -4.21696026053346e-01
1.02376434464327e+09	-2.23798816337688e-01 -4.64946297345478e-01	4.40225688708996e-02 5.05947152200020e-02	-3.83708927575458e+00 1.04797449917355e+01	2.55411290028974e-01 -4.21643622298328e-01
