# Hz S RI R 50
! Freq.	S11(V2)	S12(V2)	S21(V2)	S22(V2)
1.00000000000000e+09	-2.11223364099374e-01 -4.74119038460252e-01	4.32957457299979e-02 5.02815493294486e-02	-4.06818876238735e+00 1.05930359151039e+01	2.65322894917457e-01 -4.26897003632558e-01
1.00023028502082e+09	-2.11347976497773e-01 -4.74030557649752e-01	4.33028831316616e-02 5.02846084416000e-02	-4.06590100980252e+00 1.05919454014060e+01	2.65224834126037e-01 -4.26846414470083e-01
1.00046062307284e+09	-2.11472563826863e-01 -4.73942046733259e-01	4.33100204623310e-02 5.02876674236654e-02	-4.06361362759814e+00 1.05908544787984e+01	2.65126788375686e-01 -4.26795809258072e-01
1.00069101416826e+09	-2.11597124594983e-01 -4.73853506650779e-01	4.33171575294786e-02 5.02907266787018e-02	-4.06132669209437e+00 1.05897631510705e+01	2.65028760142874e-01 -4.26745185884695e-01
1.00092145831930e+09	-2.11721658747942e-01 -4.73764937436041e-01	4.33242943276380e-02 5.02937862190786e-02	-4.05904020561284e+00 1.05886714185550e+01	2.64930749499191e-01 -4.26694544304638e-01
1.00115195553817e+09	-2.11846166231621e-01 -4.73676339122801e-01	4.33314308513360e-02 5.02968460571561e-02	-4.05675417047176e+00 1.05875792815833e+01	2.64832756515921e-01 -4.26643884472430e-01
1.00138250583710e+09	-2.11970649164429e-01 -4.73587712899380e-01	4.33385671507368e-02 5.02999060365712e-02	-4.05446855911817e+00 1.05864867351967e+01	2.64734782006065e-01 -4.26593204281599e-01
1.00161310922831e+09	-2.12095106748194e-01 -4.73499056737653e-01	4.33457033516817e-02 5.03029659477221e-02	-4.05218332990493e+00 1.05853937814958e+01	2.64636822901971e-01 -4.26542507812718e-01
1.00184376572403e+09	-2.12219538240305e-01 -4.73410373638558e-01	4.33528391304215e-02 5.03060264156654e-02	-4.04989860301169e+00 1.05843004225564e+01	2.64538884813839e-01 -4.26491788831567e-01
1.00207447533648e+09	-2.12343942102598e-01 -4.73321659514341e-01	4.33599747441582e-02 5.03090870087744e-02	-4.04761429277319e+00 1.05832066622547e+01	2.64440961533293e-01 -4.26441055542400e-01
1.00230523807790e+09	-2.12468320449893e-01 -4.73232915552857e-01	4.33671102430065e-02 5.03121475706709e-02	-4.04533037169690e+00 1.05821124956047e+01	2.64343053875986e-01 -4.26390305838081e-01
1.00253605396052e+09	-2.12592674713216e-01 -4.73144145907341e-01	4.33742453588757e-02 5.03152085577642e-02	-4.04304693004360e+00 1.05810179194293e+01	2.64245168190684e-01 -4.26339531427624e-01
1.00276692299659e+09	-2.12717001182319e-01 -4.73055345338108e-01	4.33813802933283e-02 5.03182697070434e-02	-4.04076391203696e+00 1.05799229428641e+01	2.64147297528988e-01 -4.26288742571863e-01
1.00299784519833e+09	-2.12841300547945e-01 -4.72966515939028e-01	4.33885149096368e-02 5.03213312528871e-02	-4.03848136393022e+00 1.05788275645026e+01	2.64049445099714e-01 -4.26237935103019e-01
1.00322882057800e+09	-2.12965576344972e-01 -4.72877657988823e-01	4.33956494447290e-02 5.03243926482405e-02	-4.03619918452703e+00 1.05777317757835e+01	2.63951609326460e-01 -4.26187108978547e-01
1.00345984914784e+09	-2.13089824929593e-01 -4.72788771275618e-01	4.34027836507616e-02 5.03274544648507e-02	-4.03391747966315e+00 1.05766355859309e+01	2.63853791928489e-01 -4.26136264151080e-01
1.00369093092010e+09	-2.13214045503759e-01 -4.72699853774762e-01	4.34099176535775e-02 5.03305164929696e-02	-4.03163620772531e+00 1.05755389970005e+01	2.63755989841086e-01 -4.26085404695272e-01
1.00392206590702e+09	-2.13338243088310e-01 -4.72610909881045e-01	4.34170514275061e-02 5.03335786297226e-02	-4.02935535540681e+00 1.05744419969735e+01	2.63658207761542e-01 -4.26034522329218e-01
1.00415325412088e+09	-2.13462413300050e-01 -4.72521937325020e-01	4.34241848560478e-02 5.03366412247431e-02	-4.02707498453153e+00 1.05733445968259e+01	2.63560444269056e-01 -4.25983621125611e-01
1.00438449557391e+09	-2.13586556756178e-01 -4.72432933175545e-01	4.34313182518114e-02 5.03397036775218e-02	-4.02479497991179e+00 1.05722467949669e+01	2.63462693914648e-01 -4.25932707217836e-01
1.00461579027839e+09	-2.13710675641700e-01 -4.72343903639269e-01	4.34384512155381e-02 5.03427666667013e-02	-4.02251547547674e+00 1.05711485866368e+01	2.63364966168037e-01 -4.25881768206493e-01
1.00484713824658e+09	-2.13834767661798e-01 -4.72254842576875e-01	4.34455841356002e-02 5.03458295382969e-02	-4.02023634196258e+00 1.05700499772454e+01	2.63267251704443e-01 -4.25830816400288e-01
1.00507853949074e+09	-2.13958832095589e-01 -4.72165752987208e-01	4.34527166885274e-02 5.03488929174408e-02	-4.01795769909430e+00 1.05689509690740e+01	2.63169556110548e-01 -4.25779845575910e-01
1.00530999402313e+09	-2.14082873211135e-01 -4.72076637202187e-01	4.34598489798564e-02 5.03519564792950e-02	-4.01567948975568e+00 1.05678515518100e+01	2.63071880951999e-01 -4.25728851576051e-01
1.00554150185604e+09	-2.14206885886563e-01 -4.71987490899981e-01	4.34669810244674e-02 5.03550203512202e-02	-4.01340173181247e+00 1.05667517381258e+01	2.62974221673214e-01 -4.25677842585424e-01
1.00577306300174e+09	-2.14330874385884e-01 -4.71898316412077e-01	4.34741129278233e-02 5.03580842083553e-02	-4.01112436821444e+00 1.05656515176759e+01	2.62876579842426e-01 -4.25626814445643e-01
1.00600467747249e+09	-2.14454834338029e-01 -4.71809111475037e-01	4.34812445735996e-02 5.03611484001585e-02	-4.00884746062393e+00 1.05645509014654e+01	2.62778954033637e-01 -4.25575771223825e-01
1.00623634528060e+09	-2.14578770004529e-01 -4.71719878419058e-01	4.34883760672486e-02 5.03642126018088e-02	-4.00657095202665e+00 1.05634498791452e+01	2.62681345816685e-01 -4.25524708763115e-01
1.00646806643832e+09	-2.14702677767524e-01 -4.71630617037243e-01	4.34955071612522e-02 5.03672773849112e-02	-4.00429494780707e+00 1.05623484600932e+01	2.62583756890309e-01 -4.25473627016636e-01
1.00669984095796e+09	-2.14826561136676e-01 -4.71541327602734e-01	4.35026380922776e-02 5.03703422025072e-02	-4.00201934719538e+00 1.05612466356045e+01	2.62486185697760e-01 -4.25422525942825e-01
1.00693166885180e+09	-2.14950417901470e-01 -4.71452009001526e-01	4.35097687994429e-02 5.03734072354197e-02	-3.99974418214005e+00 1.05601444113476e+01	2.62388631559516e-01 -4.25371407551391e-01
1.00716355013213e+09	-2.15074248008567e-01 -4.71362661267357e-01	4.35168992773357e-02 5.03764724959489e-02	-3.99746945494078e+00 1.05590417876576e+01	2.62291094546488e-01 -4.25320271797365e-01
1.00739548481125e+09	-2.15198053557835e-01 -4.71273285580084e-01	4.35240295759434e-02 5.03795378278905e-02	-3.99519513829901e+00 1.05579387595187e+01	2.62193575481384e-01 -4.25269116582097e-01
1.00762747290145e+09	-2.15321830189488e-01 -4.71183879680847e-01	4.35311595790704e-02 5.03826035805489e-02	-3.99292129370741e+00 1.05568353379706e+01	2.62096072931408e-01 -4.25217945968655e-01
1.00785951441503e+09	-2.15445582908051e-01 -4.71094447948963e-01	4.35382892608755e-02 5.03856696514662e-02	-3.99064790798534e+00 1.05557315110437e+01	2.61998591594002e-01 -4.25166751695304e-01
1.00809160936429e+09	-2.15569308003418e-01 -4.71004985164593e-01	4.35454188229477e-02 5.03887357769184e-02	-3.98837492558661e+00 1.05546272876265e+01	2.61901124540484e-01 -4.25115543989849e-01
1.00832375776155e+09	-2.15693008324918e-01 -4.70915494560221e-01	4.35525481840409e-02 5.03918020229666e-02	-3.98610236296096e+00 1.05535226610929e+01	2.61803675718097e-01 -4.25064316644936e-01
1.00855595961910e+09	-2.15816679519542e-01 -4.70825973879550e-01	4.35596772280692e-02 5.03948687388497e-02	-3.98383028150490e+00 1.05524176425092e+01	2.61706243690792e-01 -4.25013073721951e-01
1.00878821494927e+09	-2.15940327982249e-01 -4.70736426590003e-01	4.35668061156131e-02 5.03979354314309e-02	-3.98155859486813e+00 1.05513122161128e+01	2.61608830788750e-01 -4.24961809017847e-01
1.00902052376435e+09	-2.16063947213700e-01 -4.70646849291689e-01	4.35739346753191e-02 5.04010026184037e-02	-3.97928739395245e+00 1.05502063983512e+01	2.61511434821450e-01 -4.24910528646402e-01
1.00925288607668e+09	-2.16187543604549e-01 -4.70557245450144e-01	4.35810630677039e-02 5.04040698066676e-02	-3.97701659246380e+00 1.05491001734471e+01	2.61414058120810e-01 -4.24859226406058e-01
1.00948530189857e+09	-2.16311110660208e-01 -4.70467611667382e-01	4.35881911214755e-02 5.04071375138598e-02	-3.97474628123491e+00 1.05479935578637e+01	2.61316698493711e-01 -4.24807908409036e-01
1.00971777124234e+09	-2.16434651866582e-01 -4.70377948212686e-01	4.35953190729820e-02 5.04102051930231e-02	-3.97247635989418e+00 1.05468865427373e+01	2.61219354400734e-01 -4.24756574611512e-01
1.00995029412032e+09	-2.16558167924489e-01 -4.70288257170821e-01	4.36024467856644e-02 5.04132730787668e-02	-3.97020687438004e+00 1.05457791268507e+01	2.61122029031605e-01 -4.24705220864262e-01
1.01018287054483e+09	-2.16681656636371e-01 -4.70198537432310e-01	4.36095741988569e-02 5.04163413517847e-02	-3.96793785645136e+00 1.05446713159269e+01	2.61024721700218e-01 -4.24653849174360e-01
1.01041550052821e+09	-2.16805120094182e-01 -4.70108790172948e-01	4.36167013624485e-02 5.04194098559379e-02	-3.96566927890493e+00 1.05435631049293e+01	2.60927433232037e-01 -4.24602457446973e-01
1.01064818408279e+09	-2.16928557487646e-01 -4.70019013375296e-01	4.36238284021596e-02 5.04224783811214e-02	-3.96340110044126e+00 1.05424544957156e+01	2.60830160580956e-01 -4.24551049740426e-01
1.01088092122091e+09	-2.17051967378088e-01 -4.69929207981674e-01	4.36309551262377e-02 5.04255473303623e-02	-3.96113339638239e+00 1.05413454924900e+01	2.60732906176471e-01 -4.24499623958052e-01
1.01111371195490e+09	-2.17175351855669e-01 -4.69839375166943e-01	4.36380815845506e-02 5.04286165475374e-02	-3.95886613954707e+00 1.05402360902117e+01	2.60635670844741e-01 -4.24448178005914e-01
1.01134655629712e+09	-2.17298710109377e-01 -4.69749512914507e-01	4.36452079028079e-02 5.04316858224993e-02	-3.95659928865753e+00 1.05391262907205e+01	2.60538451540951e-01 -4.24396715940613e-01
1.01157945425989e+09	-2.17422040704493e-01 -4.69659622166808e-01	4.36523338893247e-02 5.04347555582809e-02	-3.95433291896402e+00 1.05380160982530e+01	2.60441250691457e-01 -4.24345235666792e-01
1.01181240585558e+09	-2.17545345729404e-01 -4.69569704097775e-01	4.36594595939520e-02 5.04378255987786e-02	-3.95206700330748e+00 1.05369055077645e+01	2.60344069123150e-01 -4.24293735091483e-01
1.01204541109654e+09	-2.17668623613149e-01 -4.69479754643016e-01	4.36665852734677e-02 5.04408955113550e-02	-3.94980145691160e+00 1.05357945225536e+01	2.60246900680267e-01 -4.24242222367879e-01
1.01227846999511e+09	-2.17791876579961e-01 -4.69389779982151e-01	4.36737105292382e-02 5.04439659755813e-02	-3.94753641263012e+00 1.05346831385200e+01	2.60149754770228e-01 -4.24190685155875e-01
1.01251158256365e+09	-2.17915103059074e-01 -4.69299776051038e-01	4.36808356180720e-02 5.04470365588268e-02	-3.94527178569204e+00 1.05335713589640e+01	2.60052625238156e-01 -4.24139131608697e-01
1.01274474881453e+09	-2.18038304372850e-01 -4.69209741974429e-01	4.36879607208227e-02 5.04501068825302e-02	-3.94300750554095e+00 1.05324591802671e+01	2.59955509804517e-01 -4.24087563730370e-01
1.01297796876010e+09	-2.18161477716301e-01 -4.69119679603951e-01	4.36950854596268e-02 5.04531777404874e-02	-3.94074372016735e+00 1.05313466106519e+01	2.59858413240367e-01 -4.24035977377634e-01
1.01321124241273e+09	-2.18284623040082e-01 -4.69029588973424e-01	4.37022098291655e-02 5.04562491449323e-02	-3.93848043178942e+00 1.05302336504804e+01	2.59761335613039e-01 -4.23984372506777e-01
1.01344456978479e+09	-2.18407744561750e-01 -4.68939472392516e-01	4.37093339343639e-02 5.04593207714982e-02	-3.93621758397555e+00 1.05291202892803e+01	2.59664278512201e-01 -4.23932744979858e-01
1.01367795088864e+09	-2.18530838571729e-01 -4.68849324662132e-01	4.37164579768552e-02 5.04623923557360e-02	-3.93395512141927e+00 1.05280065356884e+01	2.59567235030097e-01 -4.23881104990623e-01
1.01391138573667e+09	-2.18653906540659e-01 -4.68759149909739e-01	4.37235816891469e-02 5.04654643548607e-02	-3.93169313329572e+00 1.05268923871658e+01	2.59470211452297e-01 -4.23829444304662e-01
1.01414487434125e+09	-2.18776948417454e-01 -4.68668948168239e-01	4.37307050658927e-02 5.04685367811126e-02	-3.92943162184160e+00 1.05257778440689e+01	2.59373207846473e-01 -4.23777762879029e-01
1.01437841671476e+09	-2.18899962625608e-01 -4.68578715378759e-01	4.37378283638426e-02 5.04716092016589e-02	-3.92717050245960e+00 1.05246629095857e+01	2.59276218068639e-01 -4.23726068856395e-01
1.01461201286958e+09	-2.19022950638622e-01 -4.68488455667097e-01	4.37449513155636e-02 5.04746820737780e-02	-3.92490986425327e+00 1.05235475812223e+01	2.59179248400556e-01 -4.23674354006305e-01
1.01484566281809e+09	-2.19145913007557e-01 -4.68398166111526e-01	4.37520742328435e-02 5.04777547963355e-02	-3.92264959339963e+00 1.05224318567092e+01	2.59082293463659e-01 -4.23622624423515e-01
1.01507936657269e+09	-2.19268849077348e-01 -4.68307849700084e-01	4.37591967931953e-02 5.04808279949121e-02	-3.92038980823622e+00 1.05213157390074e+01	2.58985358774288e-01 -4.23570873926047e-01
1.01531312414576e+09	-2.19391758033282e-01 -4.68217504420926e-01	4.37663191223034e-02 5.04839014591497e-02	-3.91813046760985e+00 1.05201992298653e+01	2.58888441295891e-01 -4.23519106561386e-01
1.01554693554969e+09	-2.19514640588984e-01 -4.68127132352296e-01	4.37734410838333e-02 5.04869754238478e-02	-3.91587161713407e+00 1.05190823282485e+01	2.58791544200367e-01 -4.23467318195702e-01
1.01578080079689e+09	-2.19637497290109e-01 -4.68036730573450e-01	4.37805629895031e-02 5.04900492878134e-02	-3.91361314309854e+00 1.05179650318301e+01	2.58694662114949e-01 -4.23415514920277e-01
1.01601471989976e+09	-2.19760326722740e-01 -4.67946300027524e-01	4.37876846479247e-02 5.04931234540525e-02	-3.91135512036038e+00 1.05168473450048e+01	2.58597797447461e-01 -4.23363694645505e-01
1.01624869287069e+09	-2.19883128835898e-01 -4.67855840748300e-01	4.37948060537525e-02 5.04961979347442e-02	-3.90909755115954e+00 1.05157292681161e+01	2.58500950265947e-01 -4.23311857326826e-01
1.01648271972209e+09	-2.20005905702987e-01 -4.67765353903355e-01	4.38019272567025e-02 5.04992725739132e-02	-3.90684040854592e+00 1.05146107960727e+01	2.58404121405423e-01 -4.23260000877212e-01
1.01671680046637e+09	-2.20128655914439e-01 -4.67674840435167e-01	4.38090480653950e-02 5.05023477745525e-02	-3.90458376727223e+00 1.05134919333056e+01	2.58307313267394e-01 -4.23208123208801e-01
1.01695093511594e+09	-2.20251380009801e-01 -4.67584297424159e-01	4.38161687915294e-02 5.05054229354417e-02	-3.90232751377058e+00 1.05123726774301e+01	2.58210520487575e-01 -4.23156230409743e-01
1.01718512368321e+09	-2.20374076581133e-01 -4.67493725813687e-01	4.38232892437680e-02 5.05084984595549e-02	-3.90007172277747e+00 1.05112530328815e+01	2.58113745467450e-01 -4.23104320391508e-01
1.01741936618060e+09	-2.20496746931389e-01 -4.67403124727848e-01	4.38304096027365e-02 5.05115739682481e-02	-3.89781632409137e+00 1.05101329958863e+01	2.58016985944436e-01 -4.23052395152778e-01
1.01765366262053e+09	-2.20619392543765e-01 -4.67312498284325e-01	4.38375296011816e-02 5.05146499190700e-02	-3.89556140653631e+00 1.05090125641297e+01	2.57920248184075e-01 -4.23000446480146e-01
1.01788801301542e+09	-2.20742010479490e-01 -4.67221843341447e-01	4.38446493097754e-02 5.05177262696746e-02	-3.89330695819634e+00 1.05078917447498e+01	2.57823528387564e-01 -4.22948480457522e-01
1.01812241737769e+09	-2.20864599920311e-01 -4.67131157891519e-01	4.38517688541913e-02 5.05208028095419e-02	-3.89105293803839e+00 1.05067705394159e+01	2.57726823526445e-01 -4.22896501124666e-01
1.01835687571978e+09	-2.20987165820257e-01 -4.67040446273087e-01	4.38588882080157e-02 5.05238794372801e-02	-3.88879933333489e+00 1.05056489362301e+01	2.57630138303172e-01 -4.22844500270569e-01
1.01859138805411e+09	-2.21109703122079e-01 -4.66949704215071e-01	4.38660073870107e-02 5.05269562786036e-02	-3.88654616131822e+00 1.05045269477676e+01	2.57533468153299e-01 -4.22792486017279e-01
1.01882595439312e+09	-2.21232215431650e-01 -4.66858936964087e-01	4.38731261789009e-02 5.05300336230032e-02	-3.88429348157690e+00 1.05034045663145e+01	2.57436820103733e-01 -4.22740448115409e-01
1.01906057474924e+09	-2.21354699042761e-01 -4.66768139341043e-01	4.38802447853581e-02 5.05331112053054e-02	-3.88204123897321e+00 1.05022818002841e+01	2.57340187263142e-01 -4.22688396726278e-01
1.01929524913492e+09	-2.21477158905765e-01 -4.66677315680891e-01	4.38873631799492e-02 5.05361889242299e-02	-3.87978942080905e+00 1.05011586377942e+01	2.57243574334284e-01 -4.22636323643937e-01
1.01952997756260e+09	-2.21599589968324e-01 -4.66586461716151e-01	4.38944813784867e-02 5.05392669053613e-02	-3.87753804426275e+00 1.05000350914128e+01	2.57146976751376e-01 -4.22584236985811e-01
1.01976476004471e+09	-2.21721995065594e-01 -4.66495580650478e-01	4.39015992996442e-02 5.05423452155324e-02	-3.87528712569303e+00 1.04989111547409e+01	2.57050398445820e-01 -4.22532130587892e-01
1.01999959659371e+09	-2.21844373375067e-01 -4.66404670477533e-01	4.39087170690252e-02 5.05454236441313e-02	-3.87303662415612e+00 1.04977868293924e+01	2.56953836393625e-01 -4.22480008485970e-01
1.02023448722206e+09	-2.21966726957221e-01 -4.66313732359906e-01	4.39158347362029e-02 5.05485020352731e-02	-3.87078651288106e+00 1.04966621102295e+01	2.56857291436389e-01 -4.22427868597126e-01
1.02046943194219e+09	-2.22089051742540e-01 -4.66222769060667e-01	4.39229517385468e-02 5.05515815736053e-02	-3.86853701061285e+00 1.04955370102854e+01	2.56760770595611e-01 -4.22375704760751e-01
1.02070443076658e+09	-2.22211348816791e-01 -4.66131774715837e-01	4.39300687041566e-02 5.05546610440307e-02	-3.86628788890147e+00 1.04944115239690e+01	2.56664263121489e-01 -4.22323529167529e-01
1.02093948370767e+09	-2.22333621010381e-01 -4.66040752526105e-01	4.39371855516296e-02 5.05577405134377e-02	-3.86403916415164e+00 1.04932856448752e+01	2.56567772945908e-01 -4.22271335656508e-01
1.02117459077794e+09	-2.22455868270515e-01 -4.65949702524233e-01	4.39443022756832e-02 5.05608199940135e-02	-3.86179083863328e+00 1.04921593733479e+01	2.56471300139218e-01 -4.22219124185044e-01
1.02140975198984e+09	-2.22578085767516e-01 -4.65858625436079e-01	4.39514184447426e-02 5.05639004475635e-02	-3.85954308772660e+00 1.04910327237462e+01	2.56374848622935e-01 -4.22166892671343e-01
1.02164496735585e+09	-2.22700277456498e-01 -4.65767518564868e-01	4.39585346106775e-02 5.05669807137184e-02	-3.85729569738315e+00 1.04899056836351e+01	2.56278411522513e-01 -4.22114647185531e-01
1.02188023688843e+09	-2.22822442726498e-01 -4.65676384891507e-01	4.39656504516100e-02 5.05700614182945e-02	-3.85504878500703e+00 1.04887782564107e+01	2.56181994306490e-01 -4.22062381571410e-01
1.02211556060006e+09	-2.22944580753117e-01 -4.65585222412163e-01	4.39727660931383e-02 5.05731423505733e-02	-3.85280230972057e+00 1.04876504436402e+01	2.56085593955375e-01 -4.22010099860144e-01
1.02235093850322e+09	-2.23066694366809e-01 -4.65494034323154e-01	4.39798814539012e-02 5.05762235775909e-02	-3.85055628787940e+00 1.04865222389748e+01	2.55989214397443e-01 -4.21957795898463e-01
1.02258637061039e+09	-2.23188781188870e-01 -4.65402814547986e-01	4.39869969211943e-02 5.05793044428637e-02	-3.84831059255005e+00 1.04853936463476e+01	2.55892846446867e-01 -4.21905481862115e-01
1.02282185693404e+09	-2.23310838734926e-01 -4.65311569923984e-01	4.39941116711028e-02 5.05823865767801e-02	-3.84606552796752e+00 1.04842646766496e+01	2.55796503265209e-01 -4.21853143452882e-01
1.02305739748666e+09	-2.23432870165530e-01 -4.65220295717456e-01	4.40012263861361e-02 5.05854685960623e-02	-3.84382083737711e+00 1.04831353184974e+01	2.55700174910078e-01 -4.21800790808846e-01
1.02329299228075e+09	-2.23554876204728e-01 -4.65128993997409e-01	4.40083409301415e-02 5.05885507357336e-02	-3.84157656607101e+00 1.04820055710451e+01	2.55603864534155e-01 -4.21748419814661e-01
1.02352864132878e+09	-2.23676856800699e-01 -4.65037664796681e-01	4.40154552978144e-02 5.05916330079182e-02	-3.83933271628714e+00 1.04808754346354e+01	2.55507572205426e-01 -4.21696030427159e-01
1.02376434464327e+09	-2.23798807700674e-01 -4.64946305899456e-01	4.40225693744276e-02 5.05947157605778e-02	-3.83708934799358e+00 1.04797449206421e+01	2.55411296436812e-01 -4.21643626673159e-01
