# Hz S RI R 50
! Freq.	S11(V2)	S12(V2)	S21(V2)	S22(V2)
1.00000000000000e+09	3.00253477910803e-02 -5.42004887625560e-01	3.47181774612606e-02 4.54708456120923e-02	-5.22320228433927e+00 9.11931064172084e+00	3.36334279191530e-01 -4.07408447393116e-01
1.00230523807790e+09	2.84852811463128e-02 -5.41585144019947e-01	3.48033380421517e-02 4.55024015561449e-02	-5.20129779668193e+00 9.11708677042247e+00	3.35361737539920e-01 -4.07351310328908e-01
1.00461579027839e+09	2.69458058719187e-02 -5.41160989842103e-01	3.48885624385051e-02 4.55338680652333e-02	-5.17939949536451e+00 9.11480968647982e+00	3.34389277446893e-01 -4.07291952798972e-01
1.00693166885180e+09	2.54069396456542e-02 -5.40732425593700e-01	3.49738502928192e-02 4.55652452785298e-02	-5.15750761704173e+00 9.11247941562953e+00	3.33416908207240e-01 -4.07230375680047e-01
1.00925288607668e+09	2.38687001466231e-02 -5.40299451858577e-01	3.50592012495061e-02 4.55965333392575e-02	-5.13562239827684e+00 9.11009598492879e+00	3.32444639101063e-01 -4.07166579911809e-01
1.01157945425990e+09	2.23311050386656e-02 -5.39862069316755e-01	3.51446149550408e-02 4.56277323942600e-02	-5.11374407545280e+00 9.10765942274319e+00	3.31472479401459e-01 -4.07100566479037e-01
1.01391138573668e+09	2.07941719706999e-02 -5.39420278740740e-01	3.52300910582214e-02 4.56588425936713e-02	-5.09187288469327e+00 9.10516975875986e+00	3.30500438368251e-01 -4.07032336420191e-01
1.01624869287070e+09	1.92579185807715e-02 -5.38974080988007e-01	3.53156292104542e-02 4.56898640905423e-02	-5.07000906177588e+00 9.10262702400101e+00	3.29528525237613e-01 -4.06961890841493e-01
1.01859138805412e+09	1.77223624869678e-02 -5.38523477018629e-01	3.54012290649237e-02 4.57207970420910e-02	-5.04815284239428e+00 9.10003125076745e+00	3.28556749249050e-01 -4.06889230877957e-01
1.02093948370768e+09	1.61875212965890e-02 -5.38068467875370e-01	3.54868902775371e-02 4.57516416083414e-02	-5.02630446185992e+00 9.09738247269196e+00	3.27585119614947e-01 -4.06814357735470e-01
1.02329299228075e+09	1.46534125978524e-02 -5.37609054694565e-01	3.55726125066476e-02 4.57823979526454e-02	-5.00446415520422e+00 9.09468072472268e+00	3.26613645535812e-01 -4.06737272670551e-01
1.02565192625141e+09	1.31200539668483e-02 -5.37145238699829e-01	3.56583954129606e-02 4.58130662418208e-02	-4.98263215720319e+00 9.09192604311025e+00	3.25642336194832e-01 -4.06657976996231e-01
1.02801629812647e+09	1.15874629598485e-02 -5.36677021212777e-01	3.57442386591867e-02 4.58436466466211e-02	-4.96080870247400e+00 9.08911846537719e+00	3.24671200771272e-01 -4.06576472060498e-01
1.03038612044162e+09	1.00556571262476e-02 -5.36204403637635e-01	3.58301419102902e-02 4.58741393417459e-02	-4.93899402545293e+00 9.08625803035283e+00	3.23700248427775e-01 -4.06492759271326e-01
1.03276140576140e+09	8.52465396547175e-03 -5.35727387475321e-01	3.59161048359051e-02 4.59045445013648e-02	-4.91718835949113e+00 9.08334477824233e+00	3.22729488282715e-01 -4.06406840114652e-01
1.03514216667934e+09	6.99447099370842e-03 -5.35245974313596e-01	3.60021271053757e-02 4.59348623078447e-02	-4.89539193862442e+00 9.08037875042856e+00	3.21758929477805e-01 -4.06318716086974e-01
1.03752841581801e+09	5.46512569464896e-03 -5.34760165825577e-01	3.60882083921601e-02 4.59650929443616e-02	-4.87360499605189e+00 9.07735998965976e+00	3.20788581112768e-01 -4.06228388767988e-01
1.03992016582906e+09	3.93663552265422e-03 -5.34269963783620e-01	3.61743483722205e-02 4.59952365973402e-02	-4.85182776464463e+00 9.07428853995200e+00	3.19818452278109e-01 -4.06135859773641e-01
1.04231742939330e+09	2.40901791931325e-03 -5.33775370040278e-01	3.62605467242947e-02 4.60252934564146e-02	-4.83006047691577e+00 9.07116444662291e+00	3.18848552038380e-01 -4.06041130786416e-01
1.04472021922080e+09	8.82290307901989e-04 -5.33276386541951e-01	3.63468031290751e-02 4.60552637156343e-02	-4.80830336526759e+00 9.06798775623750e+00	3.17878889454188e-01 -4.05944203521994e-01
1.04712854805090e+09	-6.43529922329966e-04 -5.32773015325597e-01	3.64331172708444e-02 4.60851475707606e-02	-4.78655666143748e+00 9.06475851667273e+00	3.16909473556533e-01 -4.05845079758987e-01
1.04954242865232e+09	-2.16842539326345e-03 -5.32265258510481e-01	3.65194888361862e-02 4.61149452216165e-02	-4.76482059696248e+00 9.06147677706855e+00	3.15940313359010e-01 -4.05743761328819e-01
1.05196187382322e+09	-3.69237875137873e-03 -5.31753118309474e-01	3.66059175140769e-02 4.61446568718501e-02	-4.74309540312923e+00 9.05814258781923e+00	3.14971417866110e-01 -4.05640250100481e-01
1.05438689639126e+09	-5.21537267969319e-03 -5.31236597023565e-01	3.66924029973896e-02 4.61742827263558e-02	-4.72138131045444e+00 9.05475600062293e+00	3.14002796046351e-01 -4.05534548010678e-01
1.05681750921366e+09	-6.73738987063566e-03 -5.30715697034818e-01	3.67789449811354e-02 4.62038229945999e-02	-4.69967854933425e+00 9.05131706842863e+00	3.13034456854361e-01 -4.05426657045227e-01
1.05925372517729e+09	-8.25841305028208e-03 -5.30190420822192e-01	3.68655431630537e-02 4.62332778892562e-02	-4.67798734978072e+00 9.04782584542664e+00	3.12066409232920e-01 -4.05316579224714e-01
1.06169555719872e+09	-9.77842497008397e-03 -5.29660770945319e-01	3.69521972443628e-02 4.62626476252499e-02	-4.65630794121526e+00 9.04428238709194e+00	3.11098662090944e-01 -4.05204316638189e-01
1.06414301822431e+09	-1.12974084038406e-02 -5.29126750052034e-01	3.70389069287497e-02 4.62919324215158e-02	-4.63464055281296e+00 9.04068675014088e+00	3.10131224325142e-01 -4.05089871415834e-01
1.06659612123026e+09	-1.28153461659405e-02 -5.28588360881712e-01	3.71256719235880e-02 4.63211324986045e-02	-4.61298541303808e+00 9.03703899254626e+00	3.09164104802245e-01 -4.04973245741498e-01
1.06905487922266e+09	-1.43322210790163e-02 -5.28045606252973e-01	3.72124919382220e-02 4.63502480822062e-02	-4.59134275031204e+00 9.03333917350883e+00	3.08197312377940e-01 -4.04854441843026e-01
1.07151930523760e+09	-1.58480160071679e-02 -5.27498489075321e-01	3.72993666857415e-02 4.63792793997479e-02	-4.56971279235329e+00 9.02958735348795e+00	3.07230855879304e-01 -4.04733462001909e-01
1.07398941234124e+09	-1.73627138468194e-02 -5.26947012342733e-01	3.73862958827272e-02 4.64082266809154e-02	-4.54809576627546e+00 9.02578359418968e+00	3.06264744103031e-01 -4.04610308557027e-01
1.07646521362983e+09	-1.88762975091293e-02 -5.26391179131361e-01	3.74732792478669e-02 4.64370901602817e-02	-4.52649189908765e+00 9.02192795852930e+00	3.05298985834878e-01 -4.04484983885803e-01
1.07894672222983e+09	-2.03887499527106e-02 -5.25830992609263e-01	3.75603165038798e-02 4.64658700737241e-02	-4.50490141700168e+00 9.01802051066996e+00	3.04333589829963e-01 -4.04357490418690e-01
1.08143395129794e+09	-2.19000541503755e-02 -5.25266456022572e-01	3.76474073758243e-02 4.64945666616664e-02	-4.48332454604764e+00 9.01406131598114e+00	3.03368564825561e-01 -4.04227830631699e-01
1.08392691402120e+09	-2.34101931256321e-02 -5.24697572710420e-01	3.77345515928718e-02 4.65231801657349e-02	-4.46176151143262e+00 9.01005044106917e+00	3.02403919528930e-01 -4.04096007051171e-01
1.08642562361706e+09	-2.49191499188355e-02 -5.24124346087894e-01	3.78217488868725e-02 4.65517108316159e-02	-4.44021253807668e+00 9.00598795374911e+00	3.01439662623920e-01 -4.03962022254951e-01
1.08893009333343e+09	-2.64269076074677e-02 -5.23546779655928e-01	3.79089989931637e-02 4.65801589075153e-02	-4.41867785031704e+00 9.00187392305305e+00	3.00475802768414e-01 -4.03825878869541e-01
1.09144033644875e+09	-2.79334493064388e-02 -5.22964877002486e-01	3.79963016504238e-02 4.66085246443690e-02	-4.39715767194814e+00 8.99770841921441e+00	2.99512348596897e-01 -4.03687579564860e-01
1.09395636627209e+09	-2.94387581562473e-02 -5.22378641792873e-01	3.80836566004997e-02 4.66368082963717e-02	-4.37565222631063e+00 8.99349151367071e+00	2.98549308715689e-01 -4.03547127064326e-01
1.09647819614318e+09	-3.09428173436767e-02 -5.21788077782670e-01	3.81710635889520e-02 4.66650101198154e-02	-4.35416173607528e+00 8.98922327905711e+00	2.97586691706448e-01 -4.03404524133425e-01
1.09900583943252e+09	-3.24456100793772e-02 -5.21193188805416e-01	3.82585223641837e-02 4.66931303748765e-02	-4.33268642357025e+00 8.98490378919162e+00	2.96624506128162e-01 -4.03259773582977e-01
1.10153930954141e+09	-3.39471196135102e-02 -5.20593978775296e-01	3.83460326785357e-02 4.67211693236430e-02	-4.31122651040499e+00 8.98053311909458e+00	2.95662760504980e-01 -4.03112878280575e-01
1.10407861990207e+09	-3.54473292371238e-02 -5.19990451691682e-01	3.84335942879064e-02 4.67491272307334e-02	-4.28978221758830e+00 8.97611134496611e+00	2.94701463335388e-01 -4.02963841137069e-01
1.10662378397766e+09	-3.69462222744370e-02 -5.19382611636352e-01	3.85212069512715e-02 4.67770043642318e-02	-4.26835376569855e+00 8.97163854417163e+00	2.93740623096600e-01 -4.02812665102187e-01
1.10917481526240e+09	-3.84437820844005e-02 -5.18770462768351e-01	3.86088704312800e-02 4.68048009947754e-02	-4.24694137470307e+00 8.96711479525952e+00	2.92780248233343e-01 -4.02659353179669e-01
1.11173172728159e+09	-3.99399920687546e-02 -5.18154009327482e-01	3.86965844945765e-02 4.68325173948435e-02	-4.22554526382871e+00 8.96254017795095e+00	2.91820347155660e-01 -4.02503908425560e-01
1.11429453359173e+09	-4.14348356593186e-02 -5.17533255637649e-01	3.87843489102628e-02 4.68601538416260e-02	-4.20416565209040e+00 8.95791477310374e+00	2.90860928263823e-01 -4.02346333919688e-01
1.11686324778056e+09	-4.29282963425297e-02 -5.16908206101943e-01	3.88721634525488e-02 4.68877106121655e-02	-4.18280275738756e+00 8.95323866275849e+00	2.89901999907690e-01 -4.02186632810228e-01
1.11943788346715e+09	-4.44203576259447e-02 -5.16278865197828e-01	3.89600278981439e-02 4.69151879884008e-02	-4.16145679742691e+00 8.94851193009567e+00	2.88943570419981e-01 -4.02024808281385e-01
1.12201845430196e+09	-4.59110030711347e-02 -5.15645237485836e-01	3.90479420283166e-02 4.69425862531617e-02	-4.14012798898828e+00 8.94373465945263e+00	2.87985648095195e-01 -4.01860863569591e-01
1.12460497396692e+09	-4.74002162768088e-02 -5.15007327607709e-01	3.91359056274714e-02 4.69699056927596e-02	-4.11881654840165e+00 8.93890693628630e+00	2.87028241206317e-01 -4.01694801943890e-01
1.12719745617551e+09	-4.88879808779579e-02 -5.14365140279459e-01	3.92239184837305e-02 4.69971465962874e-02	-4.09752269140135e+00 8.93402884720216e+00	2.86071357994592e-01 -4.01526626723728e-01
1.12979591467279e+09	-5.03742805565836e-02 -5.13718680298140e-01	3.93119803891502e-02 4.70243092548978e-02	-4.07624663300424e+00 8.92910047992734e+00	2.85115006669827e-01 -4.01356341270492e-01
1.13240036323555e+09	-5.18590990356222e-02 -5.13067952534472e-01	3.94000911398652e-02 4.70513939618064e-02	-4.05498858749956e+00 8.92412192332342e+00	2.84159195404349e-01 -4.01183948999234e-01
1.13501081567231e+09	-5.33424200781720e-02 -5.12412961937165e-01	3.94882505355163e-02 4.70784010132888e-02	-4.03374876863062e+00 8.91909326736431e+00	2.83203932344389e-01 -4.01009453362825e-01
1.13762728582343e+09	-5.48242274953835e-02 -5.11753713536231e-01	3.95764583795676e-02 4.71053307079683e-02	-4.01252738946800e+00 8.91401460312503e+00	2.82249225608041e-01 -4.00832857850268e-01
1.14024978756117e+09	-5.63045051371110e-02 -5.11090212432128e-01	3.96647144795028e-02 4.71321833467959e-02	-3.99132466239162e+00 8.90888602280031e+00	2.81295083275649e-01 -4.00654166004219e-01
1.14287833478977e+09	-5.77832369056871e-02 -5.10422463804320e-01	3.97530186471542e-02 4.71589592321839e-02	-3.97014079894349e+00 8.90370761968329e+00	2.80341513391818e-01 -4.00473381411689e-01
1.14551294144553e+09	-5.92604067397148e-02 -5.09750472908071e-01	3.98413706974680e-02 4.71856586704507e-02	-3.94897601025998e+00 8.89847948814979e+00	2.79388523979745e-01 -4.00290507689877e-01
1.14815362149688e+09	-6.07359986169514e-02 -5.09074245067768e-01	3.99297704493996e-02 4.72122819703085e-02	-3.92783050679145e+00 8.89320172367422e+00	2.78436123024502e-01 -4.00105548507431e-01
1.15080038894443e+09	-6.22099965835753e-02 -5.08393785692679e-01	4.00182177269353e-02 4.72388294405754e-02	-3.90670449790797e+00 8.88787442280800e+00	2.77484318472963e-01 -3.99918507574450e-01
1.15345325782109e+09	-6.36823847111532e-02 -5.07709100257735e-01	4.01067123570222e-02 4.72653013945481e-02	-3.88559819265974e+00 8.88249768317925e+00	2.76533118245481e-01 -3.99729388639965e-01
1.15611224219210e+09	-6.51531471310723e-02 -5.07020194314742e-01	4.01952541715439e-02 4.72916981459925e-02	-3.86451179907341e+00 8.87707160348787e+00	2.75582530219604e-01 -3.99538195502058e-01
1.15877735615512e+09	-6.66222680115026e-02 -5.06327073487362e-01	4.02838430056305e-02 4.73180200125108e-02	-3.84344552474122e+00 8.87159628349091e+00	2.74632562248433e-01 -3.99344931990113e-01
1.16144861384034e+09	-6.80897315714896e-02 -5.05629743473006e-01	4.03724786987102e-02 4.73442673135291e-02	-3.82239957646387e+00 8.86607182400431e+00	2.73683222149274e-01 -3.99149601975546e-01
1.16412602941049e+09	-6.95555220867753e-02 -5.04928210040974e-01	4.04611610951882e-02 4.73704403689783e-02	-3.80137416002084e+00 8.86049832689815e+00	2.72734517693162e-01 -3.98952209382457e-01
1.16680961706096e+09	-7.10196238732846e-02 -5.04222479032711e-01	4.05498900428064e-02 4.73965395025373e-02	-3.78036948073402e+00 8.85487589508232e+00	2.71786456627544e-01 -3.98752758163178e-01
1.16949939101987e+09	-7.24820212879078e-02 -5.03512556356604e-01	4.06386653931932e-02 4.74225650406643e-02	-3.75938574329204e+00 8.84920463250914e+00	2.70839046664600e-01 -3.98551252312188e-01
1.17219536554813e+09	-7.39426987632203e-02 -5.02798448003461e-01	4.07274870034300e-02 4.74485173091742e-02	-3.73842315117019e+00 8.84348464414723e+00	2.69892295474183e-01 -3.98347695863556e-01
1.17489755493953e+09	-7.54016407528413e-02 -5.02080160019445e-01	4.08163547337080e-02 4.74743966385121e-02	-3.71748190751866e+00 8.83771603601034e+00	2.68946210692815e-01 -3.98142092897159e-01
1.17760597352080e+09	-7.68588317825601e-02 -5.01357698533514e-01	4.09052684491655e-02 4.75002033594766e-02	-3.69656221444624e+00 8.83189891511013e+00	2.68000799922508e-01 -3.97934447522110e-01
1.18032063565173e+09	-7.83142564113123e-02 -5.00631069732771e-01	4.09942280187635e-02 4.75259378060692e-02	-3.67566427348823e+00 8.82603338948818e+00	2.67056070725892e-01 -3.97724763896385e-01
1.18304155572516e+09	-7.97678992654991e-02 -4.99900279884181e-01	4.10832333161401e-02 4.75516003132316e-02	-3.65478828523764e+00 8.82011956817029e+00	2.66112030632835e-01 -3.97513046204921e-01
1.18576874816716e+09	-8.12197450164542e-02 -4.99165335315494e-01	4.11722842194582e-02 4.75771912176666e-02	-3.63393444946852e+00 8.81415756119320e+00	2.65168687127818e-01 -3.97299298684417e-01
1.18850222743701e+09	-8.26697783865160e-02 -4.98426242426196e-01	4.12613806107292e-02 4.76027108588979e-02	-3.61310296532479e+00 8.80814747957688e+00	2.64226047667732e-01 -3.97083525596490e-01
1.19124200802737e+09	-8.41179841465424e-02 -4.97683007678907e-01	4.13505223764400e-02 4.76281595782866e-02	-3.59229403114300e+00 8.80208943533482e+00	2.63284119667645e-01 -3.96865731247673e-01
1.19398810446427e+09	-8.55643471333590e-02 -4.96935637609012e-01	4.14397094081059e-02 4.76535377175981e-02	-3.57150784422228e+00 8.79598354144234e+00	2.62342910501208e-01 -3.96645919980961e-01
1.19674053130724e+09	-8.70088522239064e-02 -4.96184138812065e-01	4.15289416010991e-02 4.76788456217957e-02	-3.55074460128026e+00 8.78982991186081e+00	2.61402427507107e-01 -3.96424096177532e-01
1.19949930314937e+09	-8.84514843552103e-02 -4.95428517955123e-01	4.16182188552501e-02 4.77040836374203e-02	-3.53000449819308e+00 8.78362866150050e+00	2.60462677989593e-01 -3.96200264246375e-01
1.20226443461741e+09	-8.98922285192435e-02 -4.94668781766412e-01	4.17075410754241e-02 4.77292521117904e-02	-3.50928772985038e+00 8.77737990623491e+00	2.59523669204282e-01 -3.95974428646139e-01
1.20503594037179e+09	-9.13310697663673e-02 -4.93904937044444e-01	4.17969081707797e-02 4.77543513942434e-02	-3.48859449037197e+00 8.77108376287760e+00	2.58585408375412e-01 -3.95746593860130e-01
1.20781383510677e+09	-9.27679931914490e-02 -4.93136990645987e-01	4.18863200546742e-02 4.77793818366046e-02	-3.46792497317548e+00 8.76474034919396e+00	2.57647902686880e-01 -3.95516764411510e-01
1.21059813355048e+09	-9.42029839483374e-02 -4.92364949492263e-01	4.19757766453182e-02 4.78043437917698e-02	-3.44727937074389e+00 8.75834978388370e+00	2.56711159280437e-01 -3.95284944861508e-01
1.21338885046497e+09	-9.56360272534692e-02 -4.91588820573229e-01	4.20652778655758e-02 4.78292376139420e-02	-3.42665787467148e+00 8.75191218656213e+00	2.55775185261709e-01 -3.95051139798800e-01
1.21618600064636e+09	-9.70671083771539e-02 -4.90808610938843e-01	4.21548236430196e-02 4.78540636587672e-02	-3.40606067567883e+00 8.74542767776841e+00	2.54839987692903e-01 -3.94815353851870e-01
1.21898959892486e+09	-9.84962126393474e-02 -4.90024327696905e-01	4.22444139096861e-02 4.78788222839159e-02	-3.38548796370557e+00 8.73889637896472e+00	2.53905573594731e-01 -3.94577591687620e-01
1.22179966016487e+09	-9.99233254227457e-02 -4.89235978022254e-01	4.23340486022498e-02 4.79035138484114e-02	-3.36493992781081e+00 8.73231841250577e+00	2.52971949951675e-01 -3.94337857998351e-01
1.22461619926504e+09	-1.01348432168890e-01 -4.88443569149780e-01	4.24237276623659e-02 4.79281387122390e-02	-3.34441675610016e+00 8.72569390164884e+00	2.52039123703847e-01 -3.94096157515528e-01
1.22743923115840e+09	-1.02771518373172e-01 -4.87647108376957e-01	4.25134510357984e-02 4.79526972378622e-02	-3.32391863598180e+00 8.71902297053490e+00	2.51107101758005e-01 -3.93852494992675e-01
1.23026877081238e+09	-1.04192569586479e-01 -4.86846603055418e-01	4.26032186734861e-02 4.79771897885187e-02	-3.30344575387371e+00 8.71230574420396e+00	2.50175890970720e-01 -3.93606875231088e-01
1.23310483322890e+09	-1.05611571431942e-01 -4.86042060601642e-01	4.26930305319137e-02 4.80016167269566e-02	-3.28299829501872e+00 8.70554234854890e+00	2.49245498151369e-01 -3.93359303066776e-01
1.23594743344450e+09	-1.07028509571706e-01 -4.85233488491283e-01	4.27828865703546e-02 4.80259784213265e-02	-3.26257644442779e+00 8.69873291035001e+00	2.48315930091792e-01 -3.93109783341559e-01
1.23879658653036e+09	-1.08443369740629e-01 -4.84420894254226e-01	4.28727867547570e-02 4.80502752373507e-02	-3.24218038561306e+00 8.69187755723909e+00	2.47387193516092e-01 -3.92858320959974e-01
1.24165230759240e+09	-1.09856137731104e-01 -4.83604285483313e-01	4.29627310551256e-02 4.80745075433549e-02	-3.22181030141161e+00 8.68497641769386e+00	2.46459295118974e-01 -3.92604920840220e-01
1.24451461177138e+09	-1.11266799390642e-01 -4.82783669825906e-01	4.30527194461904e-02 4.80986757093036e-02	-3.20146637381648e+00 8.67802962105123e+00	2.45532241552932e-01 -3.92349587934522e-01
1.24738351424294e+09	-1.12675340629946e-01 -4.81959054986495e-01	4.31427519078353e-02 4.81227801056514e-02	-3.18114878380311e+00 8.67103729747647e+00	2.44606039423882e-01 -3.92092327228939e-01
1.25025903021771e+09	-1.14081747420184e-01 -4.81130448727698e-01	4.32328284246319e-02 4.81468211043494e-02	-3.16085771148962e+00 8.66399957796379e+00	2.43680695298976e-01 -3.91833143734508e-01
1.25314117494141e+09	-1.15486005788884e-01 -4.80297858863395e-01	4.33229489861553e-02 4.81707990784260e-02	-3.14059333606355e+00 8.65691659434017e+00	2.42756215697947e-01 -3.91572042500308e-01
1.25602996369487e+09	-1.16888101834125e-01 -4.79461293267563e-01	4.34131135873156e-02 4.81947144009252e-02	-3.12035583562823e+00 8.64978847922779e+00	2.41832607096297e-01 -3.91309028602727e-01
1.25892541179416e+09	-1.18288021708758e-01 -4.78620759869004e-01	4.35033222272850e-02 4.82185674473769e-02	-3.10014538758579e+00 8.64261536606700e+00	2.40909875934804e-01 -3.91044107138270e-01
1.26182753459066e+09	-1.19685751624271e-01 -4.77776266647631e-01	4.35935749102557e-02 4.82423585942296e-02	-3.07996216839007e+00 8.63539738909893e+00	2.39988028606922e-01 -3.90777283237364e-01
1.26473634747114e+09	-1.21081277857080e-01 -4.76927821635452e-01	4.36838716459032e-02 4.82660882179510e-02	-3.05980635340596e+00 8.62813468335498e+00	2.39067071456075e-01 -3.90508562067539e-01
