# Hz S RI R 50
! Freq.	S11(V2)	S12(V2)	S21(V2)	S22(V2)
1.00000000000000e+09	-1.18575464455300e-01 -5.39586730167245e-01	3.96188621242980e-02 1.15056275694435e-02	2.08957783133454e+00 1.06222639604396e+01	-3.48479792780720e-02 -6.78265742677350e-01
1.00023028502082e+09	-1.18684994709373e-01 -5.39542529733312e-01	3.96249651578233e-02 1.14997388380925e-02	2.09217025018272e+00 1.06199161185150e+01	-3.49852264037076e-02 -6.78218800659478e-01
1.00046062307284e+09	-1.18794506784833e-01 -5.39498317298760e-01	3.96310676812765e-02 1.14938477661370e-02	2.09476186613275e+00 1.06175676628621e+01	-3.51224542654288e-02 -6.78171842224002e-01
1.00069101416826e+09	-1.18904000744898e-01 -5.39454092916598e-01	3.96371696930369e-02 1.14879543518083e-02	2.09735267875380e+00 1.06152185937952e+01	-3.52596628295847e-02 -6.78124867364413e-01
1.00092145831930e+09	-1.19013476579063e-01 -5.39409856580816e-01	3.96432711935567e-02 1.14820585924868e-02	2.09994268863675e+00 1.06128689109900e+01	-3.53968521162257e-02 -6.78077876111078e-01
1.00115195553817e+09	-1.19122934251763e-01 -5.39365608302849e-01	3.96493721825131e-02 1.14761604934780e-02	2.10253189418529e+00 1.06105186158459e+01	-3.55340220652955e-02 -6.78030868485462e-01
1.00138250583710e+09	-1.19232373865139e-01 -5.39321348139543e-01	3.96554726587897e-02 1.14702600486815e-02	2.10512029673058e+00 1.06081677074429e+01	-3.56711726633278e-02 -6.77983844481255e-01
1.00161310922831e+09	-1.19341795321947e-01 -5.39277076051619e-01	3.96615726229994e-02 1.14643572604591e-02	2.10770789541923e+00 1.06058161866688e+01	-3.58083039593864e-02 -6.77936804122032e-01
1.00184376572403e+09	-1.19451198616564e-01 -5.39232792051122e-01	3.96676720745860e-02 1.14584521286285e-02	2.11029468941535e+00 1.06034640542166e+01	-3.59454159841703e-02 -6.77889747416917e-01
1.00207447533648e+09	-1.19560583840196e-01 -5.39188496196704e-01	3.96737710128121e-02 1.14525446504040e-02	2.11288067954515e+00 1.06011113094242e+01	-3.60825086475933e-02 -6.77842674329863e-01
1.00230523807790e+09	-1.19669950905957e-01 -5.39144188462468e-01	3.96798694383056e-02 1.14466348305309e-02	2.11546586453229e+00 1.05987579537435e+01	-3.62195819510250e-02 -6.77795584962636e-01
1.00253605396052e+09	-1.19779299865259e-01 -5.39099868878407e-01	3.96859673500673e-02 1.14407226635945e-02	2.11805024532932e+00 1.05964039864812e+01	-3.63566359394532e-02 -6.77748479262624e-01
1.00276692299659e+09	-1.19888630691815e-01 -5.39055537444592e-01	3.96920647480007e-02 1.14348081503225e-02	2.12063382088191e+00 1.05940494085206e+01	-3.64936706191856e-02 -6.77701357283489e-01
1.00299784519833e+09	-1.19997943348578e-01 -5.39011194148294e-01	3.96981616318902e-02 1.14288912890539e-02	2.12321659152653e+00 1.05916942196986e+01	-3.66306860031775e-02 -6.77654218969876e-01
1.00322882057800e+09	-1.20107237919545e-01 -5.38966839057886e-01	3.97042580011147e-02 1.14229720815243e-02	2.12579855725066e+00 1.05893384204342e+01	-3.67676820405294e-02 -6.77607064407436e-01
1.00345984914784e+09	-1.20216514341712e-01 -5.38922472142249e-01	3.97103538558785e-02 1.14170505257970e-02	2.12837971713313e+00 1.05869820111910e+01	-3.69046587702997e-02 -6.77559893595262e-01
1.00369093092010e+09	-1.20325772647009e-01 -5.38878093458676e-01	3.97164491959551e-02 1.14111266300232e-02	2.13096007030273e+00 1.05846249931305e+01	-3.70416160634539e-02 -6.77512706548844e-01
1.00392206590702e+09	-1.20435012806316e-01 -5.38833702954932e-01	3.97225440200775e-02 1.14052003765674e-02	2.13353961847233e+00 1.05822673647179e+01	-3.71785541700574e-02 -6.77465503232914e-01
1.00415325412088e+09	-1.20544234849917e-01 -5.38789300693348e-01	3.97286383291745e-02 1.13992717780528e-02	2.13611836034124e+00 1.05799091273980e+01	-3.73154728444637e-02 -6.77418283655496e-01
1.00438449557391e+09	-1.20653438711829e-01 -5.38744886645517e-01	3.97347321228680e-02 1.13933408325608e-02	2.13869629575467e+00 1.05775502815548e+01	-3.74523722494697e-02 -6.77371047892790e-01
1.00461579027839e+09	-1.20762624508734e-01 -5.38700460888749e-01	3.97408253998904e-02 1.13874075375505e-02	2.14127342441203e+00 1.05751908271674e+01	-3.75892522419552e-02 -6.77323795944346e-01
1.00484713824658e+09	-1.20871792155430e-01 -5.38656023381605e-01	3.97469181605869e-02 1.13814718920088e-02	2.14384974621043e+00 1.05728307645457e+01	-3.77261129160108e-02 -6.77276527805685e-01
1.00507853949074e+09	-1.20980941653120e-01 -5.38611574141495e-01	3.97530104046700e-02 1.13755338968876e-02	2.14642526089869e+00 1.05704700942225e+01	-3.78629542522292e-02 -6.77229243479894e-01
1.00530999402313e+09	-1.21090073032084e-01 -5.38567113186901e-01	3.97591021314934e-02 1.13695935476682e-02	2.14899996920306e+00 1.05681088156837e+01	-3.79997762912143e-02 -6.77181942946574e-01
1.00554150185604e+09	-1.21199186297856e-01 -5.38522640557208e-01	3.97651933411381e-02 1.13636508522112e-02	2.15157386976386e+00 1.05657469302398e+01	-3.81365789518371e-02 -6.77134626313398e-01
1.00577306300174e+09	-1.21308281407021e-01 -5.38478156208762e-01	3.97712840335248e-02 1.13577058006773e-02	2.15414696273465e+00 1.05633844376487e+01	-3.82733623107081e-02 -6.77087293491360e-01
1.00600467747249e+09	-1.21417358431524e-01 -5.38433660223667e-01	3.97773742072260e-02 1.13517583993536e-02	2.15671924833488e+00 1.05610213379977e+01	-3.84101262731588e-02 -6.77039944564000e-01
1.00623634528060e+09	-1.21526417231523e-01 -5.38389152515496e-01	3.97834638638252e-02 1.13458086454465e-02	2.15929072489959e+00 1.05586576327885e+01	-3.85468709824829e-02 -6.76992579553522e-01
1.00646806643832e+09	-1.21635457985184e-01 -5.38344633211812e-01	3.97895530011002e-02 1.13398565393322e-02	2.16186139364019e+00 1.05562933209907e+01	-3.86835961839888e-02 -6.76945198357076e-01
1.00669984095796e+09	-1.21744480600304e-01 -5.38300102255444e-01	3.97956416199406e-02 1.13339020775440e-02	2.16443125454074e+00 1.05539284032187e+01	-3.88203021872797e-02 -6.76897801117502e-01
1.00693166885180e+09	-1.21853485047012e-01 -5.38255559664694e-01	3.98017297199979e-02 1.13279452665085e-02	2.16700030602739e+00 1.05515628804175e+01	-3.89569887411130e-02 -6.76850387819513e-01
1.00716355013213e+09	-1.21962471396627e-01 -5.38211005470849e-01	3.98078173005895e-02 1.13219860985820e-02	2.16956854923613e+00 1.05491967520674e+01	-3.90936559961260e-02 -6.76802958398929e-01
1.00739548481125e+09	-1.22071439588544e-01 -5.38166439667033e-01	3.98139043618338e-02 1.13160245787143e-02	2.17213598317081e+00 1.05468300190515e+01	-3.92303038692272e-02 -6.76755512933439e-01
1.00762747290145e+09	-1.22180389675374e-01 -5.38121862282094e-01	3.98199909029120e-02 1.13100607014110e-02	2.17470260793410e+00 1.05444626813640e+01	-3.93669323967103e-02 -6.76708051404290e-01
1.00785951441503e+09	-1.22289321614508e-01 -5.38077273297621e-01	3.98260769234160e-02 1.13040944637594e-02	2.17726842408726e+00 1.05420947385792e+01	-3.95035416868911e-02 -6.76660573892994e-01
1.00809160936429e+09	-1.22398235412556e-01 -5.38032672766863e-01	3.98321624240919e-02 1.12981258792854e-02	2.17983342925934e+00 1.05397261930183e+01	-3.96401314463998e-02 -6.76613080301168e-01
1.00832375776155e+09	-1.22507131111814e-01 -5.37988060690867e-01	3.98382474035735e-02 1.12921549343876e-02	2.18239762590271e+00 1.05373570428807e+01	-3.97767019414627e-02 -6.76565570730971e-01
1.00855595961910e+09	-1.22616008648764e-01 -5.37943437054373e-01	3.98443318623576e-02 1.12861816327787e-02	2.18496101192162e+00 1.05349872897328e+01	-3.99132530662144e-02 -6.76518045188577e-01
1.00878821494927e+09	-1.22724868040002e-01 -5.37898801880304e-01	3.98504157996006e-02 1.12802059732464e-02	2.18752358756792e+00 1.05326169333812e+01	-4.00497848767162e-02 -6.76470503641558e-01
1.00902052376435e+09	-1.22833709382539e-01 -5.37854155247571e-01	3.98564992151746e-02 1.12742279598181e-02	2.19008535279963e+00 1.05302459743558e+01	-4.01862972011199e-02 -6.76422946123689e-01
1.00925288607668e+09	-1.22942532458896e-01 -5.37809497023097e-01	3.98625821094210e-02 1.12682475856391e-02	2.19264630727100e+00 1.05278744129812e+01	-4.03227903422713e-02 -6.76375372632363e-01
1.00948530189857e+09	-1.23051337528110e-01 -5.37764827374951e-01	3.98686644804087e-02 1.12622648505780e-02	2.19520645187156e+00 1.05255022486384e+01	-4.04592640171428e-02 -6.76327783221243e-01
1.00971777124234e+09	-1.23160124390804e-01 -5.37720146216967e-01	3.98747463300243e-02 1.12562797627541e-02	2.19776578452705e+00 1.05231294832207e+01	-4.05957183256734e-02 -6.76280177808461e-01
1.00995029412032e+09	-1.23268893174809e-01 -5.37675453609166e-01	3.98808276561433e-02 1.12502923105249e-02	2.20032430640199e+00 1.05207561157005e+01	-4.07321532808371e-02 -6.76232556526921e-01
1.01018287054483e+09	-1.23377643753758e-01 -5.37630749513282e-01	3.98869084594411e-02 1.12443025016191e-02	2.20288201664987e+00 1.05183821471418e+01	-4.08685688896012e-02 -6.76184919306571e-01
1.01041550052821e+09	-1.23486376303735e-01 -5.37586034021238e-01	3.98929887387207e-02 1.12383103281702e-02	2.20543891565111e+00 1.05160075771077e+01	-4.10049651077540e-02 -6.76137266203268e-01
1.01064818408279e+09	-1.23595090670736e-01 -5.37541307078138e-01	3.98990684947353e-02 1.12323157976481e-02	2.20799500277003e+00 1.05136324066069e+01	-4.11413419577726e-02 -6.76089597175643e-01
1.01088092122091e+09	-1.23703786887752e-01 -5.37496568700296e-01	3.99051477272745e-02 1.12263189054315e-02	2.21055027754414e+00 1.05112566359301e+01	-4.12776995254571e-02 -6.76041912340272e-01
1.01111371195490e+09	-1.23812464976367e-01 -5.37451818917437e-01	3.99112264354439e-02 1.12203196514787e-02	2.21310474017253e+00 1.05088802650735e+01	-4.14140376640872e-02 -6.75994211608228e-01
1.01134655629712e+09	-1.23921124939019e-01 -5.37407057746318e-01	3.99173046190774e-02 1.12143180366508e-02	2.21565839000044e+00 1.05065032945524e+01	-4.15503563642983e-02 -6.75946494954270e-01
1.01157945425989e+09	-1.24029766788837e-01 -5.37362285201894e-01	3.99233822775975e-02 1.12083140584867e-02	2.21821122770529e+00 1.05041257242716e+01	-4.16866557702403e-02 -6.75898762571185e-01
1.01181240585558e+09	-1.24138390517987e-01 -5.37317501287756e-01	3.99294594108107e-02 1.12023077154499e-02	2.22076325306471e+00 1.05017475545830e+01	-4.18229358479656e-02 -6.75851014317303e-01
1.01204541109654e+09	-1.24246996112155e-01 -5.37272706016682e-01	3.99355360187642e-02 1.11962990105264e-02	2.22331446516709e+00 1.04993687860407e+01	-4.19591965152076e-02 -6.75803250247578e-01
1.01227846999511e+09	-1.24355583585803e-01 -5.37227899402563e-01	3.99416121011160e-02 1.11902879412310e-02	2.22586486375773e+00 1.04969894190869e+01	-4.20954378194889e-02 -6.75755470380676e-01
1.01251158256365e+09	-1.24464152911900e-01 -5.37183081447143e-01	3.99476876574237e-02 1.11842745081796e-02	2.22841444897977e+00 1.04946094537650e+01	-4.22316596970084e-02 -6.75707674726592e-01
1.01274474881453e+09	-1.24572704066575e-01 -5.37138252149553e-01	3.99537626878255e-02 1.11782587119488e-02	2.23096322078712e+00 1.04922288905021e+01	-4.23678623049236e-02 -6.75659863287314e-01
1.01297796876010e+09	-1.24681237155562e-01 -5.37093411573702e-01	3.99598371908782e-02 1.11722405475087e-02	2.23351117897201e+00 1.04898477292338e+01	-4.25040454893985e-02 -6.75612036015055e-01
1.01321124241273e+09	-1.24789752102951e-01 -5.37048559697277e-01	3.99659111680058e-02 1.11662200205954e-02	2.23605832255319e+00 1.04874659710222e+01	-4.26402092142298e-02 -6.75564193033481e-01
1.01344456978479e+09	-1.24898248910456e-01 -5.37003696534250e-01	3.99719846173958e-02 1.11601971276017e-02	2.23860465221836e+00 1.04850836155397e+01	-4.27763536082432e-02 -6.75516334356148e-01
1.01367795088864e+09	-1.25006727585559e-01 -5.36958822097106e-01	3.99780575397994e-02 1.11541718692992e-02	2.24115016722333e+00 1.04827006634723e+01	-4.29124785994827e-02 -6.75468459904765e-01
1.01391138573667e+09	-1.25115188150432e-01 -5.36913936400559e-01	3.99841299338851e-02 1.11481442398995e-02	2.24369486827450e+00 1.04803171143668e+01	-4.30485843140676e-02 -6.75420569767929e-01
1.01414487434125e+09	-1.25223630586447e-01 -5.36869039464916e-01	3.99902018003054e-02 1.11421142468639e-02	2.24623875435509e+00 1.04779329692749e+01	-4.31846705611921e-02 -6.75372663903197e-01
1.01437841671476e+09	-1.25332054907208e-01 -5.36824131290211e-01	3.99962731380276e-02 1.11360818819821e-02	2.24878182561239e+00 1.04755482280088e+01	-4.33207374744389e-02 -6.75324742347583e-01
1.01461201286958e+09	-1.25440461043779e-01 -5.36779211870491e-01	4.00023439478227e-02 1.11300471534059e-02	2.25132408087787e+00 1.04731628918807e+01	-4.34567849944446e-02 -6.75276805099611e-01
1.01484566281809e+09	-1.25548849086615e-01 -5.36734281249653e-01	4.00084142282337e-02 1.11240100524883e-02	2.25386552153555e+00 1.04707769598657e+01	-4.35928131296177e-02 -6.75228852162454e-01
1.01507936657269e+09	-1.25657218989101e-01 -5.36689339431940e-01	4.00144839798976e-02 1.11179705864342e-02	2.25640614611964e+00 1.04683904332561e+01	-4.37288218772642e-02 -6.75180883554971e-01
1.01531312414576e+09	-1.25765570802414e-01 -5.36644386432703e-01	4.00205532011531e-02 1.11119287439617e-02	2.25894595580191e+00 1.04660033111373e+01	-4.38648113135633e-02 -6.75132899377123e-01
1.01554693554969e+09	-1.25873904449665e-01 -5.36599422245610e-01	4.00266218936665e-02 1.11058845364979e-02	2.26148494884019e+00 1.04636155952899e+01	-4.40007813099886e-02 -6.75084899525392e-01
1.01578080079689e+09	-1.25982220033410e-01 -5.36554446937074e-01	4.00326900553806e-02 1.10998379590137e-02	2.26402312546109e+00 1.04612272853342e+01	-4.41367317868044e-02 -6.75036884030335e-01
1.01601471989976e+09	-1.26090517417856e-01 -5.36509460430699e-01	4.00387576873710e-02 1.10937890097974e-02	2.26656048605873e+00 1.04588383815564e+01	-4.42726631017035e-02 -6.74988852955200e-01
1.01624869287069e+09	-1.26198796734180e-01 -5.36464462823149e-01	4.00448247881916e-02 1.10877376897623e-02	2.26909703036832e+00 1.04564488840952e+01	-4.44085748511280e-02 -6.74940806251382e-01
1.01648271972209e+09	-1.26307057856939e-01 -5.36419454051193e-01	4.00508913589381e-02 1.10816839995804e-02	2.27163275738440e+00 1.04540587938769e+01	-4.45444672938308e-02 -6.74892744012014e-01
1.01671680046637e+09	-1.26415300927532e-01 -5.36374434195321e-01	4.00569573971816e-02 1.10756279311394e-02	2.27416766808012e+00 1.04516681100307e+01	-4.46803404184725e-02 -6.74844666189491e-01
1.01695093511594e+09	-1.26523525827048e-01 -5.36329403212378e-01	4.00630229047786e-02 1.10695694919919e-02	2.27670176139630e+00 1.04492768338956e+01	-4.48161941034001e-02 -6.74796572777697e-01
1.01718512368321e+09	-1.26631732608804e-01 -5.36284361156253e-01	4.00690878804825e-02 1.10635086834846e-02	2.27923503726288e+00 1.04468849656899e+01	-4.49520283543816e-02 -6.74748463808207e-01
1.01741936618060e+09	-1.26739921316566e-01 -5.36239308041327e-01	4.00751523236333e-02 1.10574454975909e-02	2.28176749542833e+00 1.04444925052921e+01	-4.50878432108582e-02 -6.74700339340230e-01
1.01765366262053e+09	-1.26848091837810e-01 -5.36194243826477e-01	4.00812162348505e-02 1.10513799385879e-02	2.28429913624170e+00 1.04420994532259e+01	-4.52236387463371e-02 -6.74652199318249e-01
1.01788801301542e+09	-1.26956244268303e-01 -5.36149168576485e-01	4.00872796132041e-02 1.10453120046951e-02	2.28682995903435e+00 1.04397058097360e+01	-4.53594148462906e-02 -6.74604043784526e-01
1.01812241737769e+09	-1.27064378615932e-01 -5.36104082314784e-01	4.00933424584816e-02 1.10392416978806e-02	2.28935996340522e+00 1.04373115753139e+01	-4.54951715041649e-02 -6.74555872751283e-01
1.01835687571978e+09	-1.27172494763005e-01 -5.36058984979235e-01	4.00994047707663e-02 1.10331690155107e-02	2.29188914943621e+00 1.04349167502251e+01	-4.56309088523723e-02 -6.74507686287660e-01
1.01859138805411e+09	-1.27280592845887e-01 -5.36013876647098e-01	4.01054665490974e-02 1.10270939527000e-02	2.29441751790376e+00 1.04325213339870e+01	-4.57666267886900e-02 -6.74459484214397e-01
1.01882595439312e+09	-1.27388672750859e-01 -5.35968757293170e-01	4.01115277943258e-02 1.10210165194322e-02	2.29694506646352e+00 1.04301253284371e+01	-4.59023253035997e-02 -6.74411266782254e-01
1.01906057474924e+09	-1.27496734585006e-01 -5.35923626965066e-01	4.01175885047450e-02 1.10149367048782e-02	2.29947179673082e+00 1.04277287324689e+01	-4.60380044461904e-02 -6.74363033854851e-01
1.01929524913492e+09	-1.27604778307167e-01 -5.35878485659065e-01	4.01236486804756e-02 1.10088545116714e-02	2.30199770857827e+00 1.04253315464757e+01	-4.61736642210802e-02 -6.74314785503085e-01
1.01952997756260e+09	-1.27712803914949e-01 -5.35833333400311e-01	4.01297083217445e-02 1.10027699450792e-02	2.30452280054945e+00 1.04229337716745e+01	-4.63093045563160e-02 -6.74266521730183e-01
1.01976476004471e+09	-1.27820811331396e-01 -5.35788170139313e-01	4.01357674285980e-02 1.09966829993507e-02	2.30704707266374e+00 1.04205354082231e+01	-4.64449255321775e-02 -6.74218242547099e-01
1.01999959659371e+09	-1.27928800720908e-01 -5.35742995980135e-01	4.01418259991261e-02 1.09905936710893e-02	2.30957052576601e+00 1.04181364553919e+01	-4.65805271412838e-02 -6.74169947967311e-01
1.02023448722206e+09	-1.28036771945037e-01 -5.35697810879039e-01	4.01478840347452e-02 1.09845019699764e-02	2.31209315832008e+00 1.04157369149045e+01	-4.67161092364682e-02 -6.74121637951462e-01
1.02046943194219e+09	-1.28144725047559e-01 -5.35652614850419e-01	4.01539415347654e-02 1.09784078879446e-02	2.31461497072737e+00 1.04133367863304e+01	-4.68516719383859e-02 -6.74073312565439e-01
1.02070443076658e+09	-1.28252660066107e-01 -5.35607407928740e-01	4.01599984978110e-02 1.09723114227112e-02	2.31713596339458e+00 1.04109360695196e+01	-4.69872153326000e-02 -6.74024971832044e-01
1.02093948370767e+09	-1.28360576913910e-01 -5.35562190080529e-01	4.01660549249475e-02 1.09662125775274e-02	2.31965613558705e+00 1.04085347653817e+01	-4.71227392961431e-02 -6.73976615684673e-01
1.02117459077794e+09	-1.28468475664032e-01 -5.35516961360732e-01	4.01721108152583e-02 1.09601113515168e-02	2.32217548724748e+00 1.04061328739947e+01	-4.72582438941608e-02 -6.73928244245479e-01
1.02140975198984e+09	-1.28576356366399e-01 -5.35471721815102e-01	4.01781661677701e-02 1.09540077447564e-02	2.32469401808765e+00 1.04037303956185e+01	-4.73937290199978e-02 -6.73879857496828e-01
1.02164496735585e+09	-1.28684218881709e-01 -5.35426471360628e-01	4.01842209836765e-02 1.09479017542426e-02	2.32721172813750e+00 1.04013273306895e+01	-4.75291948228023e-02 -6.73831455321457e-01
1.02188023688843e+09	-1.28792063311771e-01 -5.35381210093246e-01	4.01902752617296e-02 1.09417933862974e-02	2.32972861635890e+00 1.03989236799659e+01	-4.76646411329028e-02 -6.73783037943323e-01
1.02211556060006e+09	-1.28899889597697e-01 -5.35335937966458e-01	4.01963290019720e-02 1.09356826329910e-02	2.33224468304898e+00 1.03965194432237e+01	-4.78000681318164e-02 -6.73734605255121e-01
1.02235093850322e+09	-1.29007697829781e-01 -5.35290655038477e-01	4.02023822033772e-02 1.09295694912938e-02	2.33475992931712e+00 1.03941146199129e+01	-4.79354757059594e-02 -6.73686157310318e-01
1.02258637061039e+09	-1.29115487880354e-01 -5.35245361278727e-01	4.02084348673991e-02 1.09234539732416e-02	2.33727435259929e+00 1.03917092123054e+01	-4.80708638592927e-02 -6.73637694039682e-01
1.02282185693404e+09	-1.29223259907183e-01 -5.35200056771035e-01	4.02144869913410e-02 1.09173360685215e-02	2.33978795383262e+00 1.03893032193385e+01	-4.82062325195812e-02 -6.73589215492015e-01
1.02305739748666e+09	-1.29331013739305e-01 -5.35154741423621e-01	4.02205385770938e-02 1.09112157783533e-02	2.34230073356410e+00 1.03868966415084e+01	-4.83415819140478e-02 -6.73540721746504e-01
1.02329299228075e+09	-1.29438749490960e-01 -5.35109415328869e-01	4.02265896233458e-02 1.09050931057042e-02	2.34481269051317e+00 1.03844894794567e+01	-4.84769118354323e-02 -6.73492212714131e-01
1.02352864132878e+09	-1.29546467191909e-01 -5.35064078491392e-01	4.02326401286373e-02 1.08989680401234e-02	2.34732382590843e+00 1.03820817322229e+01	-4.86122223762651e-02 -6.73443688514034e-01
