# Hz S RI R 50
! Freq.	S11(V2)	S12(V2)	S21(V2)	S22(V2)
1.00000000000000e+09	-4.10408927040430e-02 -4.78328413790822e-01	2.94617595086545e-02 3.88533045857843e-02	-5.50944483953399e+00 1.15482168367847e+01	4.61105360142270e-01 -4.23023386666048e-01
1.00230293249304e+09	-4.23738998749618e-02 -4.77697873697552e-01	2.95247233582733e-02 3.88831149740454e-02	-5.48266480904010e+00 1.15408665512090e+01	4.60164877850251e-01 -4.22863429017810e-01
1.00461116848415e+09	-4.37052609815995e-02 -4.77063718307077e-01	2.95877170667821e-02 3.89129087036844e-02	-5.45591399430298e+00 1.15334567301748e+01	4.59225142156126e-01 -4.22701637172257e-01
1.00692472018692e+09	-4.50349628107107e-02 -4.76425954146930e-01	2.96507405687203e-02 3.89426861442987e-02	-5.42919264167276e+00 1.15259875262579e+01	4.58286160279315e-01 -4.22538016112119e-01
1.00924359984308e+09	-4.63629922673868e-02 -4.75784587766146e-01	2.97137938116808e-02 3.89724476526153e-02	-5.40250099187441e+00 1.15184590937289e+01	4.57347939203499e-01 -4.22372571128440e-01
1.01156781972255e+09	-4.76893363440987e-02 -4.75139625840017e-01	2.97768767436200e-02 3.90021935906058e-02	-5.37583928574421e+00 1.15108715877741e+01	4.56410485976596e-01 -4.22205307372785e-01
1.01389739212350e+09	-4.90139819710546e-02 -4.74491075033339e-01	2.98399893111969e-02 3.90319243302776e-02	-5.34920776550933e+00 1.15032251646897e+01	4.55473807633136e-01 -4.22036230042453e-01
1.01623232937243e+09	-5.03369162689837e-02 -4.73838942132156e-01	2.99031314716144e-02 3.90616402330566e-02	-5.32260666863610e+00 1.14955199821129e+01	4.54537911094816e-01 -4.21865344420946e-01
1.01857264382422e+09	-5.16581262855520e-02 -4.73183233937334e-01	2.99663031772283e-02 3.90913416756226e-02	-5.29603623559054e+00 1.14877561985859e+01	4.53602803350960e-01 -4.21692655717443e-01
1.02091834786221e+09	-5.29775991905354e-02 -4.72523957295692e-01	3.00295043913408e-02 3.91210290245822e-02	-5.26949670215893e+00 1.14799339741171e+01	4.52668491213545e-01 -4.21518169354654e-01
1.02326945389824e+09	-5.42953222178039e-02 -4.71861119148111e-01	3.00927350780333e-02 3.91507026516471e-02	-5.24298830413559e+00 1.14720534696664e+01	4.51734981527882e-01 -4.21341890670183e-01
1.02562597437275e+09	-5.56112826330165e-02 -4.71194726458482e-01	3.01559952056906e-02 3.91803629293012e-02	-5.21651127591269e+00 1.14641148474185e+01	4.50802281059325e-01 -4.21163825106440e-01
1.02798792175484e+09	-5.69254676956005e-02 -4.70524786264287e-01	3.02192847383945e-02 3.92100102436042e-02	-5.19006585438218e+00 1.14561182703660e+01	4.49870396677412e-01 -4.20983977943826e-01
1.03035530854230e+09	-5.82378648697781e-02 -4.69851305653208e-01	3.02826036586873e-02 3.92396449584044e-02	-5.16365226817358e+00 1.14480639031449e+01	4.48939334953113e-01 -4.20802354821251e-01
1.03272814726172e+09	-5.95484615791464e-02 -4.69174291782276e-01	3.03459519417422e-02 3.92692674560566e-02	-5.13727074989802e+00 1.14399519110743e+01	4.48009102611612e-01 -4.20618961154013e-01
1.03510645046853e+09	-6.08572452929432e-02 -4.68493751817365e-01	3.04093295695071e-02 3.92988781159746e-02	-5.11092152963416e+00 1.14317824607661e+01	4.47079706246361e-01 -4.20433802531952e-01
1.03749023074706e+09	-6.21642035454587e-02 -4.67809693015192e-01	3.04727365246511e-02 3.93284773228728e-02	-5.08460483749062e+00 1.14235557197443e+01	4.46151152484662e-01 -4.20246884455845e-01
1.03987950071066e+09	-6.34693239856827e-02 -4.67122122659040e-01	3.05361728016492e-02 3.93580654501493e-02	-5.05832089860693e+00 1.14152718569148e+01	4.45223447753450e-01 -4.20058212674279e-01
1.04227427300169e+09	-6.47725942314403e-02 -4.66431048127748e-01	3.05996383855704e-02 3.93876428926199e-02	-5.03206994292252e+00 1.14069310417510e+01	4.44296598687202e-01 -4.19867792623102e-01
1.04467456029165e+09	-6.60740020120080e-02 -4.65736476811914e-01	3.06631332742835e-02 3.94172100324689e-02	-5.00585219499968e+00 1.13985334451497e+01	4.43370611693347e-01 -4.19675630028131e-01
1.04708037528120e+09	-6.73735350875760e-02 -4.65038416120765e-01	3.07266574697998e-02 3.94467672528168e-02	-4.97966787807004e+00 1.13900792391106e+01	4.42445493099978e-01 -4.19481730709664e-01
1.04949173070025e+09	-6.86711813783810e-02 -4.64336873611876e-01	3.07902109783693e-02 3.94763149355172e-02	-4.95351721354572e+00 1.13815685964840e+01	4.41521249261057e-01 -4.19286100370450e-01
1.05190863930806e+09	-6.99669286603817e-02 -4.63631856794071e-01	3.08537937992843e-02 3.95058534824529e-02	-4.92740042697828e+00 1.13730016910477e+01	4.40597886582411e-01 -4.19088744684670e-01
1.05433111389323e+09	-7.12607649757439e-02 -4.62923373303908e-01	3.09174059486172e-02 3.95353832743421e-02	-4.90131773626669e+00 1.13643786977922e+01	4.39675411272437e-01 -4.18889669500942e-01
1.05675916727384e+09	-7.25526782464530e-02 -4.62211430757202e-01	3.09810474349713e-02 3.95649047122985e-02	-4.87526936357347e+00 1.13556997925530e+01	4.38753829621938e-01 -4.18688880580416e-01
1.05919281229747e+09	-7.38426567022037e-02 -4.61496036884811e-01	3.10447182892151e-02 3.95944181675309e-02	-4.84925552092901e+00 1.13469651524866e+01	4.37833147628323e-01 -4.18486383987912e-01
1.06163206184130e+09	-7.51306882830071e-02 -4.60777199398597e-01	3.11084185171384e-02 3.96239240601427e-02	-4.82327643282029e+00 1.13381749551556e+01	4.36913371658998e-01 -4.18282185332386e-01
1.06407692881217e+09	-7.64167612915050e-02 -4.60054926100773e-01	3.11721481547860e-02 3.96534227677458e-02	-4.79733230997193e+00 1.13293293796482e+01	4.35994507639468e-01 -4.18076290728084e-01
1.06652742614663e+09	-7.77008639424371e-02 -4.59329224827104e-01	3.12359072282159e-02 3.96829146915723e-02	-4.77142336832554e+00 1.13204286057115e+01	4.35076561662699e-01 -4.17868706056149e-01
1.06898356681102e+09	-7.89829845905669e-02 -4.58600103487645e-01	3.12996957725978e-02 3.97124002248451e-02	-4.74554981999790e+00 1.13114728141098e+01	4.34159539713163e-01 -4.17659437289478e-01
1.07144536380155e+09	-8.02631115137818e-02 -4.57867569946086e-01	3.13635138221006e-02 3.97418797711749e-02	-4.71971187839615e+00 1.13024621866239e+01	4.33243447730246e-01 -4.17448490482505e-01
1.07391283014437e+09	-8.15412332021644e-02 -4.57131632237027e-01	3.14273614175060e-02 3.97713537285895e-02	-4.69390975392437e+00 1.12933969057814e+01	4.32328291666115e-01 -4.17235871567672e-01
1.07638597889560e+09	-8.28173381611135e-02 -4.56392298352992e-01	3.14912386075941e-02 3.98008224907488e-02	-4.66814365410266e+00 1.12842771552744e+01	4.31414077288351e-01 -4.17021586732442e-01
1.07886482314145e+09	-8.40914149006728e-02 -4.55649576363899e-01	3.15551454356671e-02 3.98302864669944e-02	-4.64241378936747e+00 1.12751031194642e+01	4.30500810494706e-01 -4.16805641946808e-01
1.08134937599826e+09	-8.53634520571370e-02 -4.54903474369805e-01	3.16190819570253e-02 3.98597460545234e-02	-4.61672036516427e+00 1.12658749837853e+01	4.29588496994590e-01 -4.16588043395102e-01
1.08383965061257e+09	-8.66334383092611e-02 -4.54154000522326e-01	3.16830482279665e-02 3.98892016560507e-02	-4.59106358696011e+00 1.12565929344909e+01	4.28677142504017e-01 -4.16368797215428e-01
1.08633566016121e+09	-8.79013623787943e-02 -4.53401163024197e-01	3.17470443057680e-02 3.99186536798384e-02	-4.56544366023661e+00 1.12472571586504e+01	4.27766752744961e-01 -4.16147909498994e-01
1.08883741785134e+09	-8.91672130744745e-02 -4.52644970077724e-01	3.18110702586798e-02 3.99481025242094e-02	-4.53986078610782e+00 1.12378678444026e+01	4.26857333246343e-01 -4.15925386575598e-01
1.09134493692055e+09	-9.04309792256576e-02 -4.51885429960821e-01	3.18751261508689e-02 3.99775486007991e-02	-4.51431516790871e+00 1.12284251805388e+01	4.25948889641887e-01 -4.15701234582333e-01
1.09385823063690e+09	-9.16926498414473e-02 -4.51122551020580e-01	3.19392120599503e-02 4.00069923059945e-02	-4.48880700324473e+00 1.12189293567826e+01	4.25041427393878e-01 -4.15475459825631e-01
1.09637731229901e+09	-9.29522138072253e-02 -4.50356341578751e-01	3.20033280544923e-02 4.00364340595756e-02	-4.46333649457903e+00 1.12093805636538e+01	4.24134952065316e-01 -4.15248068484929e-01
1.09890219523613e+09	-9.42096602058737e-02 -4.49586810039287e-01	3.20674742169343e-02 4.00658742649963e-02	-4.43790383838631e+00 1.11997789925420e+01	4.23229469051030e-01 -4.15019066892380e-01
1.10143289280822e+09	-9.54649781730701e-02 -4.48813964840935e-01	3.21316506330968e-02 4.00953133274960e-02	-4.41250923011885e+00 1.11901248356448e+01	4.22324983703540e-01 -4.14788461399202e-01
1.10396941840597e+09	-9.67181568365884e-02 -4.48037814441062e-01	3.21958573872311e-02 4.01247516626746e-02	-4.38715286651715e+00 1.11804182859527e+01	4.21421501397532e-01 -4.14556258302995e-01
1.10651178545094e+09	-9.79691854815338e-02 -4.47258367348556e-01	3.22600945763755e-02 4.01541896719596e-02	-4.36183493895934e+00 1.11706595373038e+01	4.20519027333312e-01 -4.14322464077021e-01
1.10906000739558e+09	-9.92180533974600e-02 -4.46475632130032e-01	3.23243622929755e-02 4.01836277714315e-02	-4.33655564133276e+00 1.11608487841967e+01	4.19617566813630e-01 -4.14087085012873e-01
1.11161409772334e+09	-1.00464749923574e-01 -4.45689617371590e-01	3.23886606338193e-02 4.02130663776478e-02	-4.31131516610799e+00 1.11509862219521e+01	4.18717125072434e-01 -4.13850127460645e-01
1.11417406994871e+09	-1.01709264467763e-01 -4.44900331652634e-01	3.24529897049716e-02 4.02425058998167e-02	-4.28611370220802e+00 1.11410720467816e+01	4.17817707176845e-01 -4.13611597968264e-01
1.11673993761730e+09	-1.02951586604063e-01 -4.44107783680733e-01	3.25173496177875e-02 4.02719467440751e-02	-4.26095143635387e+00 1.11311064554651e+01	4.16919318206079e-01 -4.13371502975908e-01
1.11931171430591e+09	-1.04191705786248e-01 -4.43311982082875e-01	3.25817404799802e-02 4.03013893320367e-02	-4.23582855779371e+00 1.11210896457080e+01	4.16021963208034e-01 -4.13129848986732e-01
1.12188941362263e+09	-1.05429611698283e-01 -4.42512935641528e-01	3.26461624084769e-02 4.03308340751645e-02	-4.21074525169939e+00 1.11110218157344e+01	4.15125647206410e-01 -4.12886642425108e-01
1.12447304920685e+09	-1.06665294004770e-01 -4.41710653113869e-01	3.27106155215209e-02 4.03602813912106e-02	-4.18570170335989e+00 1.11009031646045e+01	4.14230375167604e-01 -4.12641889781264e-01
1.12706263472942e+09	-1.07898742481510e-01 -4.40905143262070e-01	3.27750999499621e-02 4.03897316845319e-02	-4.16069809299620e+00 1.10907338921616e+01	4.13336151852759e-01 -4.12395597780045e-01
1.12965818389263e+09	-1.09129946880536e-01 -4.40096414927665e-01	3.28396158135902e-02 4.04191853847711e-02	-4.13573460611277e+00 1.10805141988179e+01	4.12442982244955e-01 -4.12147772792797e-01
1.13225971043034e+09	-1.10358897154397e-01 -4.39284476984761e-01	3.29041632517153e-02 4.04486428961039e-02	-4.11081141999130e+00 1.10702442857151e+01	4.11550871044749e-01 -4.11898421511296e-01
1.13486722810805e+09	-1.11585583187068e-01 -4.38469338292457e-01	3.29687423979463e-02 4.04781046404577e-02	-4.08592871509027e+00 1.10599243547360e+01	4.10659823008890e-01 -4.11647550533366e-01
1.13748075072295e+09	-1.12809994965410e-01 -4.37651007804329e-01	3.30333533871476e-02 4.05075710440634e-02	-4.06108667158111e+00 1.10495546083225e+01	4.09769842943656e-01 -4.11395166315023e-01
1.14010029210399e+09	-1.14032122623570e-01 -4.36829494437322e-01	3.30979963755793e-02 4.05370425054811e-02	-4.03628546085353e+00 1.10391352496995e+01	4.08880935286612e-01 -4.11141275778264e-01
1.14272586611200e+09	-1.15251956262051e-01 -4.36004807224211e-01	3.31626715024729e-02 4.05665194580544e-02	-4.01152526204303e+00 1.10286664825776e+01	4.07993104818619e-01 -4.10885885309441e-01
1.14535748663971e+09	-1.16469486097247e-01 -4.35176955146219e-01	3.32273789264702e-02 4.05960023110695e-02	-3.98680624645362e+00 1.10181485114543e+01	4.07106355970617e-01 -4.10629001744179e-01
1.14799516761184e+09	-1.17684702380605e-01 -4.34345947235527e-01	3.32921188044175e-02 4.06254914838656e-02	-3.96212858659509e+00 1.10075815414114e+01	4.06220693231518e-01 -4.10370631783487e-01
1.15063892298518e+09	-1.18897595459987e-01 -4.33511792602037e-01	3.33568912952818e-02 4.06549873987222e-02	-3.93749245434945e+00 1.09969657780536e+01	4.05336121113679e-01 -4.10110782023460e-01
1.15328876674868e+09	-1.20108155721304e-01 -4.32674500340064e-01	3.34216965641023e-02 4.06844904757978e-02	-3.91289801955356e+00 1.09863014276776e+01	4.04452644012478e-01 -4.09849459186550e-01
1.15594471292348e+09	-1.21316373647896e-01 -4.31834079555111e-01	3.34865347858979e-02 4.07140011259686e-02	-3.88834544821174e+00 1.09755886971806e+01	4.03570266173888e-01 -4.09586670149781e-01
1.15860677556303e+09	-1.22522239746255e-01 -4.30990539401231e-01	3.35514061323680e-02 4.07435197727862e-02	-3.86383490818882e+00 1.09648277940295e+01	4.02688991923258e-01 -4.09322421625300e-01
1.16127496875313e+09	-1.23725744572312e-01 -4.30143889080978e-01	3.36163107748215e-02 4.07730468474796e-02	-3.83936656789722e+00 1.09540189262507e+01	4.01808825621099e-01 -4.09056720215932e-01
1.16394930661203e+09	-1.24926878862838e-01 -4.29294137768320e-01	3.36812489092344e-02 4.08025827475529e-02	-3.81494058567421e+00 1.09431623024207e+01	4.00929771231774e-01 -4.08789573021708e-01
1.16662980329047e+09	-1.26125633303487e-01 -4.28441294748201e-01	3.37462207115065e-02 4.08321279106531e-02	-3.79055712877145e+00 1.09322581316427e+01	4.00051833098801e-01 -4.08520986549029e-01
1.16931647297182e+09	-1.27321998671657e-01 -4.27585369235728e-01	3.38112263762957e-02 4.08616827514796e-02	-3.76621635707956e+00 1.09213066236628e+01	3.99175015219330e-01 -4.08250967755080e-01
1.17200932987207e+09	-1.28515965844245e-01 -4.26726370531753e-01	3.38762660992631e-02 4.08912476892808e-02	-3.74191843032253e+00 1.09103079886504e+01	3.98299321642184e-01 -4.07979523445357e-01
1.17470838823998e+09	-1.29707525739185e-01 -4.25864307930613e-01	3.39413400810219e-02 4.09208231427439e-02	-3.71766350665550e+00 1.08992624373485e+01	3.97424756328096e-01 -4.07706660502967e-01
1.17741366235710e+09	-1.30896669364250e-01 -4.24999190784945e-01	3.40064485251537e-02 4.09504095322659e-02	-3.69345174331397e+00 1.08881701809539e+01	3.96551323238414e-01 -4.07432385740280e-01
1.18012516653789e+09	-1.32083387715639e-01 -4.24131028426647e-01	3.40715916352387e-02 4.09800072863306e-02	-3.66928329811746e+00 1.08770314312869e+01	3.95679026303021e-01 -4.07156705974843e-01
1.18284291512977e+09	-1.33267672003885e-01 -4.23259830232503e-01	3.41367696349427e-02 4.10096168059408e-02	-3.64515832067886e+00 1.08658464004506e+01	3.94807869198953e-01 -4.06879628296614e-01
1.18556692251318e+09	-1.34449513302201e-01 -4.22385605595882e-01	3.42019827273574e-02 4.10392385349315e-02	-3.62107696989532e+00 1.08546153013046e+01	3.93937855899493e-01 -4.06601159346720e-01
1.18829720310171e+09	-1.35628902971257e-01 -4.21508363966790e-01	3.42672311433760e-02 4.10688728759354e-02	-3.59703939310318e+00 1.08433383468315e+01	3.93068990025994e-01 -4.06321306160699e-01
1.19103377134212e+09	-1.36805832241284e-01 -4.20628114733526e-01	3.43325151036878e-02 4.10985202581817e-02	-3.57304574276458e+00 1.08320157508269e+01	3.92201275280986e-01 -4.06040075651302e-01
1.19377664171445e+09	-1.37980292554389e-01 -4.19744867391063e-01	3.43978348410027e-02 4.11281810957313e-02	-3.54909616635473e+00 1.08206477272352e+01	3.91334715283562e-01 -4.05757474739953e-01
1.19652582873209e+09	-1.39152275341229e-01 -4.18858631436582e-01	3.44631905846096e-02 4.11578558163892e-02	-3.52519081334520e+00 1.08092344905963e+01	3.90469313697053e-01 -4.05473510242671e-01
1.19928134694183e+09	-1.40321772114041e-01 -4.17969416291911e-01	3.45285825822838e-02 4.11875448249723e-02	-3.50132982613006e+00 1.07977762558564e+01	3.89605073847832e-01 -4.05188189410148e-01
1.20204321092400e+09	-1.41488774452262e-01 -4.17077231547773e-01	3.45940110669844e-02 4.12172485566025e-02	-3.47751335334618e+00 1.07862732383563e+01	3.88741999417996e-01 -4.04901518889482e-01
1.20481143529248e+09	-1.42653274016456e-01 -4.16182086692624e-01	3.46594762935447e-02 4.12469674179573e-02	-3.45374153522493e+00 1.07747256538141e+01	3.87880093682365e-01 -4.04613505868122e-01
1.20758603469480e+09	-1.43815262492906e-01 -4.15283991305464e-01	3.47249785063903e-02 4.12767018397915e-02	-3.43001451660617e+00 1.07631337184298e+01	3.87019360137333e-01 -4.04324157142977e-01
1.21036702381224e+09	-1.44974731722145e-01 -4.14382954964494e-01	3.47905179683224e-02 4.13064522286042e-02	-3.40633243511529e+00 1.07514976485932e+01	3.86159802018596e-01 -4.04033479810357e-01
1.21315441735988e+09	-1.46131673485540e-01 -4.13478987209428e-01	3.48560949371574e-02 4.13362190078999e-02	-3.38269543111333e+00 1.07398176613386e+01	3.85301422588785e-01 -4.03741480893703e-01
1.21594823008669e+09	-1.47286079716218e-01 -4.12572097680840e-01	3.49217096753134e-02 4.13660025988750e-02	-3.35910364319047e+00 1.07280939738838e+01	3.84444225134261e-01 -4.03448167284017e-01
1.21874847677561e+09	-1.48437942391470e-01 -4.11662295966298e-01	3.49873624557972e-02 4.13958034129152e-02	-3.33555720620152e+00 1.07163268038326e+01	3.83588212742767e-01 -4.03153546110864e-01
1.22155517224362e+09	-1.49587253564085e-01 -4.10749591727762e-01	3.50530535493892e-02 4.14256218714231e-02	-3.31205625617929e+00 1.07045163691270e+01	3.82733388596099e-01 -4.02857624286692e-01
1.22436833134182e+09	-1.50734005351220e-01 -4.09833994598670e-01	3.51187832368717e-02 4.14554583863907e-02	-3.28860092557756e+00 1.06926628880164e+01	3.81879755707978e-01 -4.02560408906935e-01
1.22718796895551e+09	-1.51878189903115e-01 -4.08915514209527e-01	3.51845518012624e-02 4.14853133735716e-02	-3.26519134644537e+00 1.06807665791562e+01	3.81027317056057e-01 -4.02261907061616e-01
1.23001410000429e+09	-1.53019799441528e-01 -4.07994160276313e-01	3.52503595208758e-02 4.15151872628508e-02	-3.24182765297268e+00 1.06688276615585e+01	3.80176075756629e-01 -4.01962125555711e-01
1.23284673944208e+09	-1.54158826338593e-01 -4.07069942471019e-01	3.53162066980787e-02 4.15450804503435e-02	-3.21850997004567e+00 1.06568463542342e+01	3.79326034557515e-01 -4.01661071657897e-01
1.23568590225728e+09	-1.55295262921897e-01 -4.06142870475003e-01	3.53820936247491e-02 4.15749933577984e-02	-3.19523842733977e+00 1.06448228768080e+01	3.78477196352730e-01 -4.01358752372108e-01
1.23853160347278e+09	-1.56429101620812e-01 -4.05212954027353e-01	3.54480205958177e-02 4.16049264080202e-02	-3.17201315355473e+00 1.06327574491325e+01	3.77629564046448e-01 -4.01055174603583e-01
1.24138385814607e+09	-1.57560334950083e-01 -4.04280202797256e-01	3.55139879248895e-02 4.16348799998059e-02	-3.14883427043783e+00 1.06206502911697e+01	3.76783140225323e-01 -4.00750345661503e-01
1.24424268136933e+09	-1.58688955487869e-01 -4.03344626587177e-01	3.55799959125087e-02 4.16648545598149e-02	-3.12570190513894e+00 1.06085016233025e+01	3.75937927774307e-01 -4.00444272328865e-01
1.24710808826948e+09	-1.59814955869522e-01 -4.02406235091054e-01	3.56460448793246e-02 4.16948504887783e-02	-3.10261617740456e+00 1.05963116660312e+01	3.75093929205979e-01 -4.00136961881684e-01
1.24998009400829e+09	-1.60938328770929e-01 -4.01465038059336e-01	3.57121351402499e-02 4.17248682038544e-02	-3.07957720962330e+00 1.05840806402511e+01	3.74251147161608e-01 -3.99828421332806e-01
1.25285871378244e+09	-1.62059066960528e-01 -4.00521045259263e-01	3.57782670175434e-02 4.17549081162980e-02	-3.05658512160138e+00 1.05718087670017e+01	3.73409584200006e-01 -3.99518657737763e-01
1.25574396282359e+09	-1.63177163294529e-01 -3.99574266486919e-01	3.58444408383747e-02 4.17849706355404e-02	-3.03364003153367e+00 1.05594962674947e+01	3.72569242843072e-01 -3.99207678128237e-01
1.25863585639852e+09	-1.64292610647724e-01 -3.98624711479784e-01	3.59106569372964e-02 4.18150561663777e-02	-3.01074205527576e+00 1.05471433632084e+01	3.71730125459015e-01 -3.98895489705272e-01
1.26153440980912e+09	-1.65405401967371e-01 -3.97672390054127e-01	3.59769156440152e-02 4.18451651280268e-02	-2.98789131085618e+00 1.05347502759356e+01	3.70892234555465e-01 -3.98582099380526e-01
