# Hz S RI R 50
! Freq.	S11(V2)	S12(V2)	S21(V2)	S22(V2)
1.00000000000000e+09	-9.80494369493459e-01 1.94806372338304e-01	-3.36285271906810e-04 -9.69754109178296e-04	1.85577529653203e-01 -1.95201808929349e-01	-7.71175881557725e-01 4.94577503028065e-01
1.00023028502082e+09	-9.80485091709760e-01 1.94852572904003e-01	-3.36648851477108e-04 -9.70367022981003e-04	1.85607472441352e-01 -1.95326179095702e-01	-7.71098860317999e-01 4.94648972449897e-01
1.00046062307284e+09	-9.80475809274039e-01 1.94898785189042e-01	-3.37012765855394e-04 -9.70980302071410e-04	1.85637391643868e-01 -1.95450607991330e-01	-7.71021821362508e-01 4.94720442380256e-01
1.00069101416826e+09	-9.80466522183679e-01 1.94945009197560e-01	-3.37377015246971e-04 -9.71593946411300e-04	1.85667287184543e-01 -1.95575095584917e-01	-7.70944764715805e-01 4.94791912827929e-01
1.00092145831930e+09	-9.80457230436104e-01 1.94991244932786e-01	-3.37741600015221e-04 -9.72207956398509e-04	1.85697159069723e-01 -1.95699641934417e-01	-7.70867690351628e-01 4.94863383787641e-01
1.00115195553817e+09	-9.80447934028700e-01 1.95037492398633e-01	-3.38106520401603e-04 -9.72822332099829e-04	1.85727007243304e-01 -1.95824247029448e-01	-7.70790598283298e-01 4.94934855263911e-01
1.00138250583710e+09	-9.80438632958856e-01 1.95083751598534e-01	-3.38471776703426e-04 -9.73437073776462e-04	1.85756831687723e-01 -1.95948910895975e-01	-7.70713488507777e-01 4.95006327249914e-01
1.00161310922831e+09	-9.80429327223999e-01 1.95130022536219e-01	-3.38837369244627e-04 -9.74052181648502e-04	1.85786632372617e-01 -1.96073633561132e-01	-7.70636361009132e-01 4.95077799754747e-01
1.00184376572403e+09	-9.80420016821446e-01 1.95176305214683e-01	-3.39203298276857e-04 -9.74667656030457e-04	1.85816409298263e-01 -1.96198415046525e-01	-7.70559215806565e-01 4.95149272745935e-01
1.00207447533648e+09	-9.80410701748659e-01 1.95222599638424e-01	-3.39569564094069e-04 -9.75283496907605e-04	1.85846162383262e-01 -1.96323255343902e-01	-7.70482052887696e-01 4.95220746260204e-01
1.00230523807790e+09	-9.80401382002949e-01 1.95268905810318e-01	-3.39936166958609e-04 -9.75899704639047e-04	1.85875891636943e-01 -1.96448154482591e-01	-7.70404872269142e-01 4.95292220261436e-01
1.00253605396052e+09	-9.80392057581754e-01 1.95315223734360e-01	-3.40303107189955e-04 -9.76516279372797e-04	1.85905597012660e-01 -1.96573112479720e-01	-7.70327673934167e-01 4.95363694769117e-01
1.00276692299659e+09	-9.80382728482487e-01 1.95361553414042e-01	-3.40670385134189e-04 -9.77133221418630e-04	1.85935278498137e-01 -1.96698129377982e-01	-7.70250457861573e-01 4.95435169785106e-01
1.00299784519833e+09	-9.80373394702466e-01 1.95407894852859e-01	-3.41038001002912e-04 -9.77750530913309e-04	1.85964936057067e-01 -1.96823205167938e-01	-7.70173224081002e-01 4.95506645291461e-01
1.00322882057800e+09	-9.80364056239112e-01 1.95454248054796e-01	-3.41405955101412e-04 -9.78368207988505e-04	1.85994569640694e-01 -1.96948339861232e-01	-7.70095972581638e-01 4.95578121304605e-01
1.00345984914784e+09	-9.80354713089749e-01 1.95500613022767e-01	-3.41774247724216e-04 -9.78986253036332e-04	1.86024179261991e-01 -1.97073533498273e-01	-7.70018703368118e-01 4.95649597794347e-01
1.00369093092010e+09	-9.80345365251791e-01 1.95546989761116e-01	-3.42142879130599e-04 -9.79604666038689e-04	1.86053764842956e-01 -1.97198786061864e-01	-7.69941416443426e-01 4.95721074785087e-01
1.00392206590702e+09	-9.80336012722587e-01 1.95593378273034e-01	-3.42511849626132e-04 -9.80223447330852e-04	1.86083326382005e-01 -1.97324097587994e-01	-7.69864111805317e-01 4.95792552259764e-01
1.00415325412088e+09	-9.80326655499571e-01 1.95639778562178e-01	-3.42881159578964e-04 -9.80842597211833e-04	1.86112863861571e-01 -1.97449468122715e-01	-7.69786789423120e-01 4.95864030229999e-01
1.00438449557391e+09	-9.80317293580048e-01 1.95686190632050e-01	-3.43250809202478e-04 -9.81462115817934e-04	1.86142377244956e-01 -1.97574897656548e-01	-7.69709449326460e-01 4.95935508677665e-01
1.00461579027839e+09	-9.80307926961431e-01 1.95732614486895e-01	-3.43620798782404e-04 -9.82082003192427e-04	1.86171866465218e-01 -1.97700386185541e-01	-7.69632091509661e-01 4.96006987626663e-01
1.00484713824658e+09	-9.80298555641021e-01 1.95779050129372e-01	-3.43991128619853e-04 -9.82702259801511e-04	1.86201331551535e-01 -1.97825933760092e-01	-7.69554715978290e-01 4.96078467036610e-01
1.00507853949074e+09	-9.80289179616255e-01 1.95825497563885e-01	-3.44361799022629e-04 -9.83322885675735e-04	1.86230772431336e-01 -1.97951540379684e-01	-7.69477322717076e-01 4.96149946940767e-01
1.00530999402313e+09	-9.80279798884472e-01 1.95871956793509e-01	-3.44732810308167e-04 -9.83943881196357e-04	1.86260189112096e-01 -1.98077206088123e-01	-7.69399911721218e-01 4.96221427318544e-01
1.00554150185604e+09	-9.80270413443038e-01 1.95918427822205e-01	-3.45104162737518e-04 -9.84565246447257e-04	1.86289581539203e-01 -1.98202930880332e-01	-7.69322482997918e-01 4.96292908177629e-01
1.00577306300174e+09	-9.80261023289282e-01 1.95964910653408e-01	-3.45475856582081e-04 -9.85186981658935e-04	1.86318949690732e-01 -1.98328714771195e-01	-7.69245036556157e-01 4.96364389505280e-01
1.00600467747249e+09	-9.80251628420603e-01 1.96011405291005e-01	-3.45847892160546e-04 -9.85809087009220e-04	1.86348293526873e-01 -1.98454557780131e-01	-7.69167572382401e-01 4.96435871314503e-01
1.00623634528060e+09	-9.80242228834320e-01 1.96057911738063e-01	-3.46220269775885e-04 -9.86431562863537e-04	1.86377613053061e-01 -1.98580459945395e-01	-7.69090090477913e-01 4.96507353581727e-01
1.00646806643832e+09	-9.80232824527784e-01 1.96104429998781e-01	-3.46592989653414e-04 -9.87054409199887e-04	1.86406908194486e-01 -1.98706421240655e-01	-7.69012590861104e-01 4.96578836318981e-01
1.00669984095796e+09	-9.80223415498427e-01 1.96150960076617e-01	-3.46966052217494e-04 -9.87677626441093e-04	1.86436178955214e-01 -1.98832441738966e-01	-7.68935073483817e-01 4.96650319536547e-01
1.00693166885180e+09	-9.80214001743510e-01 1.96197501975061e-01	-3.47339457651425e-04 -9.88301214691857e-04	1.86465425294748e-01 -1.98958521419376e-01	-7.68857538387954e-01 4.96721803210639e-01
1.00716355013213e+09	-9.80204583260393e-01 1.96244055697729e-01	-3.47713206264902e-04 -9.88925174187290e-04	1.86494647187520e-01 -1.99084660305740e-01	-7.68779985566893e-01 4.96793287341032e-01
1.00739548481125e+09	-9.80195160046490e-01 1.96290621248673e-01	-3.48087298399334e-04 -9.89549505093859e-04	1.86523844588289e-01 -1.99210858420906e-01	-7.68702414997461e-01 4.96864771950384e-01
1.00762747290145e+09	-9.80185732099079e-01 1.96337198631420e-01	-3.48461734270358e-04 -9.90174207548503e-04	1.86553017460113e-01 -1.99337115755077e-01	-7.68624826709418e-01 4.96936257020718e-01
1.00785951441503e+09	-9.80176299415517e-01 1.96383787848862e-01	-3.48836514266985e-04 -9.90799282073125e-04	1.86582165834000e-01 -1.99463432384632e-01	-7.68547220674630e-01 4.97007742533037e-01
1.00809160936429e+09	-9.80166861993179e-01 1.96430388905381e-01	-3.49211638652802e-04 -9.91424728650399e-04	1.86611289631613e-01 -1.99589808292155e-01	-7.68469596895805e-01 4.97079228512036e-01
1.00832375776155e+09	-9.80157419829378e-01 1.96477001804556e-01	-3.49587107691299e-04 -9.92050547466886e-04	1.86640388821662e-01 -1.99716243484640e-01	-7.68391955384520e-01 4.97150714948701e-01
1.00855595961910e+09	-9.80147972921446e-01 1.96523626549749e-01	-3.49962921698980e-04 -9.92676738832100e-04	1.86669463394811e-01 -1.99842737995998e-01	-7.68314296135044e-01 4.97222201832636e-01
1.00878821494927e+09	-9.80138521266680e-01 1.96570263144525e-01	-3.50339080923722e-04 -9.93303302916508e-04	1.86698513317895e-01 -1.99969291827553e-01	-7.68236619165079e-01 4.97293689151925e-01
1.00902052376435e+09	-9.80129064862520e-01 1.96616911593121e-01	-3.50715585746497e-04 -9.93930239891350e-04	1.86727538541941e-01 -2.00095905011307e-01	-7.68158924435602e-01 4.97365176941722e-01
1.00925288607668e+09	-9.80119603706213e-01 1.96663571898562e-01	-3.51092436410086e-04 -9.94557550058156e-04	1.86756539064559e-01 -2.00222577563004e-01	-7.68081211972300e-01 4.97436665166704e-01
1.00948530189857e+09	-9.80110137795144e-01 1.96710244064776e-01	-3.51469633253872e-04 -9.95185233612443e-04	1.86785514847322e-01 -2.00349309507824e-01	-7.68003481755313e-01 4.97508153842836e-01
1.00971777124234e+09	-9.80100667126588e-01 1.96756928095319e-01	-3.51847176510500e-04 -9.95813290708666e-04	1.86814465855163e-01 -2.00476100841384e-01	-7.67925733808452e-01 4.97579642955340e-01
1.00995029412032e+09	-9.80091191697937e-01 1.96803623994141e-01	-3.52225066535719e-04 -9.96441721559168e-04	1.86843392051551e-01 -2.00602951594501e-01	-7.67847968105739e-01 4.97651132523216e-01
1.01018287054483e+09	-9.80081711506447e-01 1.96850331764412e-01	-3.52603303578558e-04 -9.97070526437182e-04	1.86872293426745e-01 -2.00729861780680e-01	-7.67770184669385e-01 4.97722622517734e-01
1.01041550052821e+09	-9.80072226549495e-01 1.96897051410192e-01	-3.52981887968594e-04 -9.97699705493873e-04	1.86901169933253e-01 -2.00856831417222e-01	-7.67692383482071e-01 4.97794112958670e-01
1.01064818408279e+09	-9.80062736824383e-01 1.96943782934719e-01	-3.53360820019575e-04 -9.98329259068618e-04	1.86930021568723e-01 -2.00983860540298e-01	-7.67614564541585e-01 4.97865603829061e-01
1.01088092122091e+09	-9.80053242328423e-01 1.96990526342103e-01	-3.53740099971007e-04 -9.98959187184856e-04	1.86958848267106e-01 -2.01110949131036e-01	-7.67536727863667e-01 4.97937095137556e-01
1.01111371195490e+09	-9.80043743058966e-01 1.97037281635772e-01	-3.54119728190544e-04 -9.99589490203325e-04	1.86987650024449e-01 -2.01238097240405e-01	-7.67458873424240e-01 4.98008586882721e-01
1.01134655629712e+09	-9.80034239013237e-01 1.97084048819120e-01	-3.54499704874986e-04 -1.00022016827409e-03	1.87016426808891e-01 -2.01365304854786e-01	-7.67381001262919e-01 4.98080079037197e-01
1.01157945425989e+09	-9.80024730188668e-01 1.97130827896298e-01	-3.54880030435517e-04 -1.00085122163192e-03	1.87045178582291e-01 -2.01492572019868e-01	-7.67303111331749e-01 4.98151571635672e-01
1.01181240585558e+09	-9.80015216582541e-01 1.97177618870785e-01	-3.55260705150041e-04 -1.00148265050974e-03	1.87073905322048e-01 -2.01619898750441e-01	-7.67225203639732e-01 4.98223064665524e-01
1.01204541109654e+09	-9.80005698192141e-01 1.97224421746184e-01	-3.55641729285786e-04 -1.00211445509545e-03	1.87102606996501e-01 -2.01747285053378e-01	-7.67147278198463e-01 4.98294558117846e-01
1.01227846999511e+09	-9.79996175014778e-01 1.97271236526260e-01	-3.56023103131398e-04 -1.00274663556526e-03	1.87131283568733e-01 -2.01874730938997e-01	-7.67069335009886e-01 4.98366051993411e-01
1.01251158256365e+09	-9.79986647047767e-01 1.97318063214541e-01	-3.56404827013769e-04 -1.00337919220223e-03	1.87159935021714e-01 -2.02002236439123e-01	-7.66991374064659e-01 4.98437546288501e-01
1.01274474881453e+09	-9.79977114288414e-01 1.97364901814796e-01	-3.56786901222119e-04 -1.00401212518275e-03	1.87188561318468e-01 -2.02129801564075e-01	-7.66913395364710e-01 4.98509041003896e-01
1.01297796876010e+09	-9.79967576734023e-01 1.97411752330792e-01	-3.57169326046205e-04 -1.00464543468297e-03	1.87217162421892e-01 -2.02257426324199e-01	-7.66835398911931e-01 4.98580536140287e-01
1.01321124241273e+09	-9.79958034381889e-01 1.97458614765800e-01	-3.57552101818906e-04 -1.00527912106056e-03	1.87245738331261e-01 -2.02385110761404e-01	-7.66757384698014e-01 4.98652031683748e-01
1.01344456978479e+09	-9.79948487229313e-01 1.97505489123715e-01	-3.57935228819835e-04 -1.00591318444652e-03	1.87274289000311e-01 -2.02512854878148e-01	-7.66679352727394e-01 4.98723527638636e-01
1.01367795088864e+09	-9.79938935273597e-01 1.97552375408562e-01	-3.58318707317437e-04 -1.00654762492704e-03	1.87302814373874e-01 -2.02640658668893e-01	-7.66601303007102e-01 4.98795024013174e-01
1.01391138573667e+09	-9.79929378512056e-01 1.97599273623647e-01	-3.58702537678306e-04 -1.00718244289323e-03	1.87331314454771e-01 -2.02768522187045e-01	-7.66523235516503e-01 4.98866520799249e-01
1.01414487434125e+09	-9.79919816941957e-01 1.97646183772591e-01	-3.59086720171719e-04 -1.00781763853379e-03	1.87359789211146e-01 -2.02896445439394e-01	-7.66445150267211e-01 4.98938017988039e-01
1.01437841671476e+09	-9.79910250560622e-01 1.97693105859455e-01	-3.59471255099509e-04 -1.00845321196851e-03	1.87388238591486e-01 -2.03024428431849e-01	-7.66367047253934e-01 4.99009515593680e-01
1.01461201286958e+09	-9.79900679365309e-01 1.97740039887486e-01	-3.59856142764022e-04 -1.00908916352218e-03	1.87416662591066e-01 -2.03152471194935e-01	-7.66288926480625e-01 4.99081013596273e-01
1.01484566281809e+09	-9.79891103353338e-01 1.97786985860750e-01	-3.60241383467959e-04 -1.00972549331440e-03	1.87445061158203e-01 -2.03280573734588e-01	-7.66210787941938e-01 4.99152512009872e-01
1.01507936657269e+09	-9.79881522521987e-01 1.97833943782529e-01	-3.60626977546505e-04 -1.01036220170422e-03	1.87473434292012e-01 -2.03408736092785e-01	-7.66132631629557e-01 4.99224010820626e-01
1.01531312414576e+09	-9.79871936868510e-01 1.97880913656937e-01	-3.61012925210202e-04 -1.01099928868215e-03	1.87501781922367e-01 -2.03536958238807e-01	-7.66054457571458e-01 4.99295510031530e-01
1.01554693554969e+09	-9.79862346390231e-01 1.97927895487074e-01	-3.61399226882451e-04 -1.01163675476505e-03	1.87530104073779e-01 -2.03665240253520e-01	-7.65976265729561e-01 4.99367009633047e-01
1.01578080079689e+09	-9.79852751084414e-01 1.97974889277323e-01	-3.61785882768475e-04 -1.01227459986971e-03	1.87558400659931e-01 -2.03793582096022e-01	-7.65898056130792e-01 4.99438509638634e-01
1.01601471989976e+09	-9.79843150948344e-01 1.98021895030866e-01	-3.62172893232478e-04 -1.01291282441741e-03	1.87586671690563e-01 -2.03921983822055e-01	-7.65819828758070e-01 4.99510010033543e-01
1.01624869287069e+09	-9.79833545979317e-01 1.98068912751888e-01	-3.62560258550921e-04 -1.01355142846645e-03	1.87614917103112e-01 -2.04050445423785e-01	-7.65741583614740e-01 4.99581510832792e-01
1.01648271972209e+09	-9.79823936174573e-01 1.98115942443398e-01	-3.62947979050446e-04 -1.01419041243346e-03	1.87643136910686e-01 -2.04178966947669e-01	-7.65663320699673e-01 4.99653012009048e-01
1.01671680046637e+09	-9.79814321531421e-01 1.98162984109854e-01	-3.63336055002721e-04 -1.01482977630250e-03	1.87671331034369e-01 -2.04307548375746e-01	-7.65585040015087e-01 4.99724513587646e-01
1.01695093511594e+09	-9.79804702047112e-01 1.98210037754282e-01	-3.63724486751057e-04 -1.01546952050768e-03	1.87699499489204e-01 -2.04436189760210e-01	-7.65506741553728e-01 4.99796015544323e-01
1.01718512368321e+09	-9.79795077718907e-01 1.98257103380845e-01	-3.64113274540212e-04 -1.01610964507352e-03	1.87727642208710e-01 -2.04564891081675e-01	-7.65428425331228e-01 4.99867517888133e-01
1.01741936618060e+09	-9.79785448544081e-01 1.98304180992857e-01	-3.64502418725278e-04 -1.01675015037686e-03	1.87755759193422e-01 -2.04693652388004e-01	-7.65350091333051e-01 4.99939020608070e-01
1.01765366262053e+09	-9.79775814519943e-01 1.98351270594297e-01	-3.64891919639576e-04 -1.01739103660099e-03	1.87783850402382e-01 -2.04822473698837e-01	-7.65271739544997e-01 5.00010523717627e-01
1.01788801301542e+09	-9.79766175643720e-01 1.98398372189048e-01	-3.65281777517356e-04 -1.01803230382801e-03	1.87811915783476e-01 -2.04951354999084e-01	-7.65193369989975e-01 5.00082027212623e-01
1.01812241737769e+09	-9.79756531912645e-01 1.98445485780506e-01	-3.65671992653868e-04 -1.01867395233903e-03	1.87839955322555e-01 -2.05080296311299e-01	-7.65114982674545e-01 5.00153531076932e-01
1.01835687571978e+09	-9.79746883324054e-01 1.98492611372327e-01	-3.66062565466303e-04 -1.01931598250491e-03	1.87867969011245e-01 -2.05209297696422e-01	-7.65036577558274e-01 5.00225035321747e-01
1.01859138805411e+09	-9.79737229875144e-01 1.98539748968366e-01	-3.66453496156208e-04 -1.01995839437433e-03	1.87895956793713e-01 -2.05338359127716e-01	-7.64958154676484e-01 5.00296539937058e-01
1.01882595439312e+09	-9.79727571563234e-01 1.98586898572266e-01	-3.66844785125149e-04 -1.02060118830141e-03	1.87923918659608e-01 -2.05467480660400e-01	-7.64879713994871e-01 5.00368044931060e-01
1.01906057474924e+09	-9.79717908385503e-01 1.98634060187868e-01	-3.67236432558227e-04 -1.02124436431791e-03	1.87951854551221e-01 -2.05596662261849e-01	-7.64801255554986e-01 5.00439550290836e-01
1.01929524913492e+09	-9.79708240339308e-01 1.98681233818996e-01	-3.67628438896634e-04 -1.02188792278336e-03	1.87979764454647e-01 -2.05725903996762e-01	-7.64722779306409e-01 5.00511056037138e-01
1.01952997756260e+09	-9.79698567421770e-01 1.98728419469174e-01	-3.68020804281431e-04 -1.02253186375294e-03	1.88007648322772e-01 -2.05855205825196e-01	-7.64644285310445e-01 5.00582562137797e-01
1.01976476004471e+09	-9.79688889630221e-01 1.98775617141582e-01	-3.68413529193124e-04 -1.02317618779853e-03	1.88035506185112e-01 -2.05984567846005e-01	-7.64565773510236e-01 5.00654068592154e-01
1.01999959659371e+09	-9.79679206961936e-01 1.98822826841195e-01	-3.68806613845775e-04 -1.02382089470460e-03	1.88063337924378e-01 -2.06113990003288e-01	-7.64487243924097e-01 5.00725575437595e-01
1.02023448722206e+09	-9.79669519414069e-01 1.98870048570473e-01	-3.69200058547753e-04 -1.02446598500596e-03	1.88091143582212e-01 -2.06243472352240e-01	-7.64408696565780e-01 5.00797082620333e-01
1.02046943194219e+09	-9.79659826983949e-01 1.98917282333974e-01	-3.69593863642029e-04 -1.02511145875453e-03	1.88118923086577e-01 -2.06373014898060e-01	-7.64330131412361e-01 5.00868590177536e-01
1.02070443076658e+09	-9.79650129668774e-01 1.98964528134714e-01	-3.69988029443052e-04 -1.02575731635370e-03	1.88146676448508e-01 -2.06502617681438e-01	-7.64251548469107e-01 5.00940098079199e-01
1.02093948370767e+09	-9.79640427465843e-01 1.99011785977478e-01	-3.70382556238587e-04 -1.02640355772995e-03	1.88174403574146e-01 -2.06632280679900e-01	-7.64172947730519e-01 5.01011606364065e-01
1.02117459077794e+09	-9.79630720372310e-01 1.99059055865108e-01	-3.70777444304474e-04 -1.02705018328143e-03	1.88202104477925e-01 -2.06762003924621e-01	-7.64094329218012e-01 5.01083114989528e-01
1.02140975198984e+09	-9.79621008385465e-01 1.99106337801631e-01	-3.71172693995569e-04 -1.02769719321009e-03	1.88229779120353e-01 -2.06891787441124e-01	-7.64015692910955e-01 5.01154623972178e-01
1.02164496735585e+09	-9.79611291502539e-01 1.99153631790501e-01	-3.71568305645043e-04 -1.02834458783280e-03	1.88257427490524e-01 -2.07021631263678e-01	-7.63937038803469e-01 5.01226133301800e-01
1.02188023688843e+09	-9.79601569720783e-01 1.99200937835952e-01	-3.71964279535239e-04 -1.02899236720925e-03	1.88285049525395e-01 -2.07151535384224e-01	-7.63858366898642e-01 5.01297642993707e-01
1.02211556060006e+09	-9.79591843037341e-01 1.99248255940833e-01	-3.72360615943559e-04 -1.02964053173760e-03	1.88312645239077e-01 -2.07281499833983e-01	-7.63779677217917e-01 5.01369153005106e-01
1.02235093850322e+09	-9.79582111449558e-01 1.99295586110260e-01	-3.72757315203551e-04 -1.03028908132168e-03	1.88340214527162e-01 -2.07411524597708e-01	-7.63700969735838e-01 5.01440663394302e-01
1.02258637061039e+09	-9.79572374954588e-01 1.99342928346976e-01	-3.73154377621098e-04 -1.03093801642304e-03	1.88367757414656e-01 -2.07541609720490e-01	-7.63622244465113e-01 5.01512174117779e-01
1.02282185693404e+09	-9.79562633549681e-01 1.99390282654858e-01	-3.73551803530649e-04 -1.03158733725583e-03	1.88395273867181e-01 -2.07671755224221e-01	-7.63543501394961e-01 5.01583685182494e-01
1.02305739748666e+09	-9.79552887232060e-01 1.99437649037497e-01	-3.73949593255272e-04 -1.03223704409257e-03	1.88422763864881e-01 -2.07801961135114e-01	-7.63464740522066e-01 5.01655196582198e-01
1.02329299228075e+09	-9.79543135998964e-01 1.99485027499265e-01	-3.74347747068222e-04 -1.03288713694642e-03	1.88450227335276e-01 -2.07932227437066e-01	-7.63385961851905e-01 5.01726708335761e-01
1.02352864132878e+09	-9.79533379847595e-01 1.99532418043360e-01	-3.74746265309999e-04 -1.03353761621074e-03	1.88477664283702e-01 -2.08062554174521e-01	-7.63307165379848e-01 5.01798220422800e-01
