# Hz S RI R 50
! Freq.	S11(V2)	S12(V2)	S21(V2)	S22(V2)
1.00000000000000e+09	-2.00151864424945e-01 -8.96279530734771e-01	-6.34300157984913e-03 1.59786091934971e-02	-4.48912678313088e+00 4.45790979373117e-01	-7.55385796605476e-01 5.64609176109354e-01
1.00023028502082e+09	-2.00409028337377e-01 -8.96253020635626e-01	-6.34160540003800e-03 1.59856030629888e-02	-4.48933808034867e+00 4.47281181647650e-01	-7.55279300206939e-01 5.64695602086871e-01
1.00046062307284e+09	-2.00666197153082e-01 -8.96226421722939e-01	-6.34020661032902e-03 1.59925986272899e-02	-4.48954867347341e+00 4.48771711044158e-01	-7.55172770746063e-01 5.64782017841390e-01
1.00069101416826e+09	-2.00923370849059e-01 -8.96199734003084e-01	-6.33880520960347e-03 1.59995958888739e-02	-4.48975856294021e+00 4.50262567505479e-01	-7.55066208171170e-01 5.64868423397358e-01
1.00092145831930e+09	-2.01180549482687e-01 -8.96172957436699e-01	-6.33740119488155e-03 1.60065948445064e-02	-4.48996774763055e+00 4.51753750720282e-01	-7.54959612522528e-01 5.64954818715624e-01
1.00115195553817e+09	-2.01437732928432e-01 -8.96146092015473e-01	-6.33599456574719e-03 1.60135954935312e-02	-4.49017622733597e+00 4.53245260090348e-01	-7.54852983807020e-01 5.65041203776666e-01
1.00138250583710e+09	-2.01694921125996e-01 -8.96119137746928e-01	-6.33458532148586e-03 1.60205978381917e-02	-4.49038400248706e+00 4.54737095436041e-01	-7.54746321978969e-01 5.65127578599900e-01
1.00161310922831e+09	-2.01952114085971e-01 -8.96092094587173e-01	-6.33317345948827e-03 1.60276018741236e-02	-4.49059107174887e+00 4.56229256222960e-01	-7.54639627100302e-01 5.65213943129797e-01
1.00184376572403e+09	-2.02209311715409e-01 -8.96064962547514e-01	-6.33175897945191e-03 1.60346076037806e-02	-4.49079743565112e+00 4.57721742200570e-01	-7.54532899123559e-01 5.65300297386169e-01
1.00207447533648e+09	-2.02466514010626e-01 -8.96037741599091e-01	-6.33034187925764e-03 1.60416150247803e-02	-4.49100309338006e+00 4.59214552958533e-01	-7.54426138078019e-01 5.65386641336517e-01
1.00230523807790e+09	-2.02723720850941e-01 -8.96010431736690e-01	-6.32892215850767e-03 1.60486241369118e-02	-4.49120804483469e+00 4.60707687947490e-01	-7.54319343962822e-01 5.65472974966998e-01
1.00253605396052e+09	-2.02980932241962e-01 -8.95983032936974e-01	-6.32749981511010e-03 1.60556349386780e-02	-4.49141228941161e+00 4.62201146856969e-01	-7.54212516791707e-01 5.65559298256270e-01
1.00276692299659e+09	-2.03238148151763e-01 -8.95955545200934e-01	-6.32607484790275e-03 1.60626474316740e-02	-4.49161582733811e+00 4.63694929532287e-01	-7.54105656528271e-01 5.65645611217603e-01
1.00299784519833e+09	-2.03495368511199e-01 -8.95927968507504e-01	-6.32464725560661e-03 1.60696616139322e-02	-4.49181865799997e+00 4.65189035417000e-01	-7.53998763198460e-01 5.65731913819466e-01
1.00322882057800e+09	-2.03752593232473e-01 -8.95900302847823e-01	-6.32321703740505e-03 1.60766774850311e-02	-4.49202078119829e+00 4.66683464033254e-01	-7.53891836803135e-01 5.65818206047592e-01
1.00345984914784e+09	-2.04009822321156e-01 -8.95872548198618e-01	-6.32178419120596e-03 1.60836950434703e-02	-4.49222219633062e+00 4.68178215069271e-01	-7.53784877356063e-01 5.65904487880669e-01
1.00369093092010e+09	-2.04267055731442e-01 -8.95844704552725e-01	-6.32034871580252e-03 1.60907142895080e-02	-4.49242290330971e+00 4.69673288219172e-01	-7.53677884844222e-01 5.65990759315194e-01
1.00392206590702e+09	-2.04524293319726e-01 -8.95816771914709e-01	-6.31891061124309e-03 1.60977352240396e-02	-4.49262290234706e+00 4.71168682962457e-01	-7.53570859249400e-01 5.66077020349049e-01
1.00415325412088e+09	-2.04781535175436e-01 -8.95788750241387e-01	-6.31746987413649e-03 1.61047578435873e-02	-4.49282219222674e+00 4.72664399050105e-01	-7.53463800613980e-01 5.66163270942753e-01
1.00438449557391e+09	-2.05038781094476e-01 -8.95760639548030e-01	-6.31602650538511e-03 1.61117821499159e-02	-4.49302077346533e+00 4.74160435868022e-01	-7.53356708908535e-01 5.66249511100749e-01
1.00461579027839e+09	-2.05296031259482e-01 -8.95732439800090e-01	-6.31458050083971e-03 1.61188081418042e-02	-4.49321864527977e+00 4.75656793613576e-01	-7.53249584131920e-01 5.66335740816267e-01
1.00484713824658e+09	-2.05553285382363e-01 -8.95704150986601e-01	-6.31313186167191e-03 1.61258358163077e-02	-4.49341580712848e+00 4.77153471043789e-01	-7.53142426339131e-01 5.66421960032545e-01
1.00507853949074e+09	-2.05810543617949e-01 -8.95675773102915e-01	-6.31168058468244e-03 1.61328651762074e-02	-4.49361225927075e+00 4.78650468616602e-01	-7.53035235462972e-01 5.66508168788669e-01
1.00530999402313e+09	-2.06067805692415e-01 -8.95647306146512e-01	-6.31022667108321e-03 1.61398962199039e-02	-4.49380800148196e+00 4.80147785241609e-01	-7.52928011534926e-01 5.66594367044697e-01
1.00554150185604e+09	-2.06325071802031e-01 -8.95618750067709e-01	-6.30877011624381e-03 1.61469289441627e-02	-4.49400303245742e+00 4.81645420984042e-01	-7.52820754586925e-01 5.66680554770878e-01
1.00577306300174e+09	-2.06582341706142e-01 -8.95590104906833e-01	-6.30731092200009e-03 1.61539633538743e-02	-4.49419735355011e+00 4.83143375389296e-01	-7.52713464539071e-01 5.66766732006564e-01
1.00600467747249e+09	-2.06839615475148e-01 -8.95561370609463e-01	-6.30584908489252e-03 1.61609994437492e-02	-4.49439096312160e+00 4.84641648003991e-01	-7.52606141465175e-01 5.66852898689621e-01
1.00623634528060e+09	-2.07096893026283e-01 -8.95532547170039e-01	-6.30438460412029e-03 1.61680372138103e-02	-4.49458386108268e+00 4.86140238398127e-01	-7.52498785358334e-01 5.66939054811537e-01
1.00646806643832e+09	-2.07354174169894e-01 -8.95503634589619e-01	-6.30291748011859e-03 1.61750766638236e-02	-4.49477604743349e+00 4.87639145825176e-01	-7.52391396222239e-01 5.67025200353998e-01
1.00669984095796e+09	-2.07611459172057e-01 -8.95474632836291e-01	-6.30144770793654e-03 1.61821177939269e-02	-4.49496752161298e+00 4.89138370827698e-01	-7.52283974027647e-01 5.67111335331722e-01
1.00693166885180e+09	-2.07868747694373e-01 -8.95445541916195e-01	-6.29997528963509e-03 1.61891606029428e-02	-4.49515828359937e+00 4.90637912169890e-01	-7.52176518802823e-01 5.67197459705783e-01
1.00716355013213e+09	-2.08126039835654e-01 -8.95416361814787e-01	-6.29850022235448e-03 1.61962050916285e-02	-4.49534833322655e+00 4.92137769985085e-01	-7.52069030517829e-01 5.67283573487716e-01
1.00739548481125e+09	-2.08383335420077e-01 -8.95387092518400e-01	-6.29702250606251e-03 1.62032512577368e-02	-4.49553766997492e+00 4.93637943392501e-01	-7.51961509209600e-01 5.67369676636353e-01
1.00762747290145e+09	-2.08640634569538e-01 -8.95357734002763e-01	-6.29554213743991e-03 1.62102991009082e-02	-4.49572629336625e+00 4.95138432496663e-01	-7.51853954865555e-01 5.67455769151355e-01
1.00785951441503e+09	-2.08897937159546e-01 -8.95328286261242e-01	-6.29405911608689e-03 1.62173486204802e-02	-4.49591420320356e+00 4.96639236691689e-01	-7.51746367492879e-01 5.67541851013599e-01
1.00809160936429e+09	-2.09155243102987e-01 -8.95298749285824e-01	-6.29257344118215e-03 1.62243998160279e-02	-4.49610139929437e+00 4.98140355497489e-01	-7.51638747092458e-01 5.67627922208921e-01
1.00832375776155e+09	-2.09412552429075e-01 -8.95269123067217e-01	-6.29108511068394e-03 1.62314526882876e-02	-4.49628788156751e+00 4.99641788854676e-01	-7.51531093638672e-01 5.67713982744140e-01
1.00855595961910e+09	-2.09669865059367e-01 -8.95239407579831e-01	-6.28959412330302e-03 1.62385072343603e-02	-4.49647364920475e+00 5.01143536093499e-01	-7.51423407173750e-01 5.67800032576723e-01
1.00878821494927e+09	-2.09927180809682e-01 -8.95209602828015e-01	-6.28810047947691e-03 1.62455634544658e-02	-4.49665870231453e+00 5.02645596520945e-01	-7.51315687693426e-01 5.67886071693880e-01
1.00902052376435e+09	-2.10184499861679e-01 -8.95179708776684e-01	-6.28660417504413e-03 1.62526213473577e-02	-4.49684304011557e+00 5.04147970327108e-01	-7.51207935196555e-01 5.67972100088987e-01
1.00925288607668e+09	-2.10441822013043e-01 -8.95149725442644e-01	-6.28510521090195e-03 1.62596809148300e-02	-4.49702666313444e+00 5.05650656901826e-01	-7.51100149653422e-01 5.68058117766686e-01
1.00948530189857e+09	-2.10699147250284e-01 -8.95119652792145e-01	-6.28360358491011e-03 1.62667421535469e-02	-4.49720957035235e+00 5.07153655718372e-01	-7.50992331109689e-01 5.68144124683356e-01
1.00971777124234e+09	-2.10956475602523e-01 -8.95089490816076e-01	-6.28209929503380e-03 1.62738050642438e-02	-4.49739176170080e+00 5.08656966714174e-01	-7.50884479539777e-01 5.68230120846020e-01
1.00995029412032e+09	-2.11213806923035e-01 -8.95059239517628e-01	-6.28059234129467e-03 1.62808696473817e-02	-4.49757323729507e+00 5.10160589320419e-01	-7.50776594933120e-01 5.68316106247013e-01
1.01018287054483e+09	-2.11471141165761e-01 -8.95028898867455e-01	-6.27908272199249e-03 1.62879358998336e-02	-4.49775399621905e+00 5.11664522933650e-01	-7.50668677333913e-01 5.68402080843448e-01
1.01041550052821e+09	-2.11728478382825e-01 -8.94998468846667e-01	-6.27757043462998e-03 1.62950038212120e-02	-4.49793403809162e+00 5.13168767462148e-01	-7.50560726733981e-01 5.68488044630399e-01
1.01064818408279e+09	-2.11985818399919e-01 -8.94967949465768e-01	-6.27605547968178e-03 1.63020734126474e-02	-4.49811336323736e+00 5.14673322313132e-01	-7.50452743113305e-01 5.68573997606617e-01
1.01088092122091e+09	-2.12243161222552e-01 -8.94937340701996e-01	-6.27453785504739e-03 1.63091446726085e-02	-4.49829197106042e+00 5.16178187166079e-01	-7.50344726485870e-01 5.68659939750926e-01
1.01111371195490e+09	-2.12500506805867e-01 -8.94906642549146e-01	-6.27301755950298e-03 1.63162176013599e-02	-4.49846986148309e+00 5.17683361714325e-01	-7.50236676838400e-01 5.68745871060013e-01
1.01134655629712e+09	-2.12757855113405e-01 -8.94875854983315e-01	-6.27149459135908e-03 1.63232921966753e-02	-4.49864703380029e+00 5.19188845459043e-01	-7.50128594199191e-01 5.68831791502097e-01
1.01157945425989e+09	-2.13015206035790e-01 -8.94844978006803e-01	-6.26996895023807e-03 1.63303684592538e-02	-4.49882348813638e+00 5.20694637951190e-01	-7.50020478551561e-01 5.68917701074883e-01
1.01181240585558e+09	-2.13272559684846e-01 -8.94814011589675e-01	-6.26844063279078e-03 1.63374463878164e-02	-4.49899922380543e+00 5.22200739185980e-01	-7.49912329898728e-01 5.69003599767000e-01
1.01204541109654e+09	-2.13529915793451e-01 -8.94782955734926e-01	-6.26690964027671e-03 1.63445259812023e-02	-4.49917424070222e+00 5.23707148115438e-01	-7.49804148265034e-01 5.69089487544470e-01
1.01227846999511e+09	-2.13787274455532e-01 -8.94751810425052e-01	-6.26537596979807e-03 1.63516072397148e-02	-4.49934853855884e+00 5.25213864820652e-01	-7.49695933628080e-01 5.69175364413294e-01
1.01251158256365e+09	-2.14044635584572e-01 -8.94720575652803e-01	-6.26383962053073e-03 1.63586901629264e-02	-4.49952211718885e+00 5.26720888819270e-01	-7.49587685988774e-01 5.69261230359432e-01
1.01274474881453e+09	-2.14301999126284e-01 -8.94689251406869e-01	-6.26230059123818e-03 1.63657747501903e-02	-4.49969497630643e+00 5.28228219697055e-01	-7.49479405349851e-01 5.69347085368513e-01
1.01297796876010e+09	-2.14559365113394e-01 -8.94657837657721e-01	-6.26075887939589e-03 1.63728609992889e-02	-4.49986711511202e+00 5.29735857146216e-01	-7.49371091735172e-01 5.69432929413433e-01
1.01321124241273e+09	-2.14816733298585e-01 -8.94626334419412e-01	-6.25921448628013e-03 1.63799489108877e-02	-4.50003853392266e+00 5.31243800334156e-01	-7.49262745136986e-01 5.69518762482397e-01
1.01344456978479e+09	-2.15074103835171e-01 -8.94594741663362e-01	-6.25766740815222e-03 1.63870384843946e-02	-4.50020923216624e+00 5.32752049425629e-01	-7.49154365544406e-01 5.69604584575123e-01
1.01367795088864e+09	-2.15331476567600e-01 -8.94563059388381e-01	-6.25611764502524e-03 1.63941297193623e-02	-4.50037920975407e+00 5.34260603743629e-01	-7.49045952962937e-01 5.69690395672962e-01
1.01391138573667e+09	-2.15588851501271e-01 -8.94531287571953e-01	-6.25456519480138e-03 1.64012226142449e-02	-4.50054846609343e+00 5.35769462962397e-01	-7.48937507406730e-01 5.69776195754880e-01
1.01414487434125e+09	-2.15846228559512e-01 -8.94499426212566e-01	-6.25301005667412e-03 1.64083171695285e-02	-4.50071700121165e+00 5.37278626704180e-01	-7.48829028860701e-01 5.69861984818146e-01
1.01437841671476e+09	-2.16103607715565e-01 -8.94467475292027e-01	-6.25145222896773e-03 1.64154133838857e-02	-4.50088481461745e+00 5.38788094572452e-01	-7.48720517337283e-01 5.69947762842224e-01
1.01461201286958e+09	-2.16360988851067e-01 -8.94435434807825e-01	-6.24989171128230e-03 1.64225112571071e-02	-4.50105190622846e+00 5.40297866012944e-01	-7.48611972835718e-01 5.70033529813638e-01
1.01484566281809e+09	-2.16618372003432e-01 -8.94403304733332e-01	-6.24832850110825e-03 1.64296107874223e-02	-4.50121827535328e+00 5.41807940766266e-01	-7.48503395372011e-01 5.70119285711066e-01
1.01507936657269e+09	-2.16875757073797e-01 -8.94371085076791e-01	-6.24676259806380e-03 1.64367119764574e-02	-4.50138392233168e+00 5.43318318493705e-01	-7.48394784913147e-01 5.70205030543362e-01
1.01531312414576e+09	-2.17133144085023e-01 -8.94338775803468e-01	-6.24519399961697e-03 1.64438148210627e-02	-4.50154884615544e+00 5.44828998775130e-01	-7.48286141499273e-01 5.70290764272361e-01
1.01554693554969e+09	-2.17390532800348e-01 -8.94306376933697e-01	-6.24362270706154e-03 1.64509193228317e-02	-4.50171304735819e+00 5.46339980885334e-01	-7.48177465106533e-01 5.70376486897607e-01
1.01578080079689e+09	-2.17647923439899e-01 -8.94273888409391e-01	-6.24204871533832e-03 1.64580254777424e-02	-4.50187652443118e+00 5.47851264875999e-01	-7.48068755777465e-01 5.70462198383700e-01
1.01601471989976e+09	-2.17905315749431e-01 -8.94241310263553e-01	-6.24047202619255e-03 1.64651332889905e-02	-4.50203927832815e+00 5.49362850110689e-01	-7.47960013462369e-01 5.70547898747675e-01
1.01624869287069e+09	-2.18162709793527e-01 -8.94208642462497e-01	-6.23889263667959e-03 1.64722427541184e-02	-4.50220130815149e+00 5.50874736345457e-01	-7.47851238187041e-01 5.70633587962085e-01
1.01648271972209e+09	-2.18420105454232e-01 -8.94175885003998e-01	-6.23731054639145e-03 1.64793538729166e-02	-4.50236261382080e+00 5.52386923027037e-01	-7.47742429950668e-01 5.70719266013403e-01
1.01671680046637e+09	-2.18677502682543e-01 -8.94143037879922e-01	-6.23572575408794e-03 1.64864666451935e-02	-4.50252319516023e+00 5.53899409793934e-01	-7.47633588747883e-01 5.70804932892881e-01
1.01695093511594e+09	-2.18934901574857e-01 -8.94110101052234e-01	-6.23413825640809e-03 1.64935810682624e-02	-4.50268305117204e+00 5.55412196468672e-01	-7.47524714606330e-01 5.70890588572711e-01
1.01718512368321e+09	-2.19192301831017e-01 -8.94077074550593e-01	-6.23254805548905e-03 1.65006971441698e-02	-4.50284218259552e+00 5.56925282188191e-01	-7.47415807498615e-01 5.70976233053425e-01
1.01741936618060e+09	-2.19449703611440e-01 -8.94043958328182e-01	-6.23095514712329e-03 1.65078148697816e-02	-4.50300058823067e+00 5.58438666913818e-01	-7.47306867455865e-01 5.71061866306263e-01
1.01765366262053e+09	-2.19707106780975e-01 -8.94010752395466e-01	-6.22935953134141e-03 1.65149342464954e-02	-4.50315826841722e+00 5.59952350184315e-01	-7.47197894451259e-01 5.71147488335050e-01
1.01788801301542e+09	-2.19964511285812e-01 -8.93977456741864e-01	-6.22776120690293e-03 1.65220552736580e-02	-4.50331522287596e+00 5.61466331582143e-01	-7.47088888487567e-01 5.71233099125560e-01
1.01812241737769e+09	-2.20221917089551e-01 -8.93944071344249e-01	-6.22616017212108e-03 1.65291779490048e-02	-4.50347145090834e+00 5.62980610598236e-01	-7.46979849593557e-01 5.71318698646123e-01
1.01835687571978e+09	-2.20479324089219e-01 -8.93910596208910e-01	-6.22455642660711e-03 1.65363022737140e-02	-4.50362695275459e+00 5.64495186840373e-01	-7.46870777744148e-01 5.71404286900181e-01
1.01859138805411e+09	-2.20736732380977e-01 -8.93877031297774e-01	-6.22294996699796e-03 1.65434282450869e-02	-4.50378172741785e+00 5.66010060128177e-01	-7.46761672967065e-01 5.71489863859949e-01
1.01882595439312e+09	-2.20994141746601e-01 -8.93843376619778e-01	-6.22134079414781e-03 1.65505558631216e-02	-4.50393577501961e+00 5.67525229645404e-01	-7.46652535264418e-01 5.71575429507741e-01
1.01906057474924e+09	-2.21251552321274e-01 -8.93809632158346e-01	-6.21972890473754e-03 1.65576851288213e-02	-4.50408909541031e+00 5.69040695644171e-01	-7.46543364599039e-01 5.71660983860847e-01
1.01929524913492e+09	-2.21508963904252e-01 -8.93775797909921e-01	-6.21811429917336e-03 1.65648160405731e-02	-4.50424168829232e+00 5.70556457217120e-01	-7.46434160999029e-01 5.71746526884107e-01
1.01952997756260e+09	-2.21766376559519e-01 -8.93741873841022e-01	-6.21649697452672e-03 1.65719485958939e-02	-4.50439355277214e+00 5.72072514109892e-01	-7.46324924490551e-01 5.71832058550403e-01
1.01976476004471e+09	-2.22023790066823e-01 -8.93707859981349e-01	-6.21487693209189e-03 1.65790827977934e-02	-4.50454468970848e+00 5.73588865766738e-01	-7.46215655025076e-01 5.71917578876141e-01
1.01999959659371e+09	-2.22281204534280e-01 -8.93673756277705e-01	-6.21325416807341e-03 1.65862186414804e-02	-4.50469509758138e+00 5.75105511853435e-01	-7.46106352664793e-01 5.72003087810723e-01
1.02023448722206e+09	-2.22538619869158e-01 -8.93639562742018e-01	-6.21162868208308e-03 1.65933561290672e-02	-4.50484477684525e+00 5.76622452088371e-01	-7.45997017368204e-01 5.72088585368848e-01
1.02046943194219e+09	-2.22796036012980e-01 -8.93605279361329e-01	-6.21000047287042e-03 1.66004952594313e-02	-4.50499372711773e+00 5.78139685998440e-01	-7.45887649146224e-01 5.72174071530671e-01
1.02070443076658e+09	-2.23053452917176e-01 -8.93570906128017e-01	-6.20836953918892e-03 1.66076360323795e-02	-4.50514194822802e+00 5.79657213220649e-01	-7.45778247993437e-01 5.72259546287551e-01
1.02093948370767e+09	-2.23310870555101e-01 -8.93536443024713e-01	-6.20673587936972e-03 1.66147784465622e-02	-4.50528943969322e+00 5.81175033349233e-01	-7.45668813922559e-01 5.72345009619260e-01
1.02117459077794e+09	-2.23568288831673e-01 -8.93501890040276e-01	-6.20509949257056e-03 1.66219225006139e-02	-4.50543620112621e+00 5.82693145789117e-01	-7.45559346950865e-01 5.72430461500638e-01
1.02140975198984e+09	-2.23825707803472e-01 -8.93467247159087e-01	-6.20346037630023e-03 1.66290681945933e-02	-4.50558223226576e+00 5.84211550488784e-01	-7.45449847062008e-01 5.72515901933182e-01
1.02164496735585e+09	-2.24083127226475e-01 -8.93432514398064e-01	-6.20181853182665e-03 1.66362155291977e-02	-4.50572753344471e+00 5.85730246621930e-01	-7.45340314248078e-01 5.72601330905161e-01
1.02188023688843e+09	-2.24340547301353e-01 -8.93397691710918e-01	-6.20017395454084e-03 1.66433645019569e-02	-4.50587210357676e+00 5.87249234313441e-01	-7.45230748526045e-01 5.72686748399012e-01
1.02211556060006e+09	-2.24597967710875e-01 -8.93362779118446e-01	-6.19852664654526e-03 1.66505151130887e-02	-4.50601594298682e+00 5.88768512490922e-01	-7.45121149900818e-01 5.72772154392610e-01
1.02235093850322e+09	-2.24855388597019e-01 -8.93327776586123e-01	-6.19687660407821e-03 1.66576673610383e-02	-4.50615905089816e+00 5.90288081196446e-01	-7.45011518377703e-01 5.72857548874933e-01
1.02258637061039e+09	-2.25112809847898e-01 -8.93292684115662e-01	-6.19522382673206e-03 1.66648212460649e-02	-4.50630142734554e+00 5.91807939930125e-01	-7.44901853947723e-01 5.72942931838248e-01
1.02282185693404e+09	-2.25370231422136e-01 -8.93257501681834e-01	-6.19356831282354e-03 1.66719767654087e-02	-4.50644307152947e+00 5.93328088119547e-01	-7.44792156648217e-01 5.73028303245391e-01
1.02305739748666e+09	-2.25627653305992e-01 -8.93222229295963e-01	-6.19191006112252e-03 1.66791339221483e-02	-4.50658398402404e+00 5.94848525787433e-01	-7.44682426416355e-01 5.73113663127217e-01
1.02329299228075e+09	-2.25885075421398e-01 -8.93186866934873e-01	-6.19024907037088e-03 1.66862927132830e-02	-4.50672416402688e+00 5.96369252236148e-01	-7.44572663295968e-01 5.73199011441487e-01
1.02352864132878e+09	-2.26142497720057e-01 -8.93151414591300e-01	-6.18858533931819e-03 1.66934531386177e-02	-4.50686361137079e+00 5.97890267101483e-01	-7.44462867281618e-01 5.73284348179633e-01
