# Hz S RI R 50
! Freq.	S11(V2)	S12(V2)	S21(V2)	S22(V2)
1.00000000000000e+09	-2.72604302169001e-01 -4.16227648136556e-01	4.10426292800597e-02 4.75584675882858e-02	-3.49672579645883e+00 1.09375600088625e+01	2.11783288659250e-01 -4.00495443234904e-01
1.00023028502082e+09	-2.72709985740363e-01 -4.16132783437585e-01	4.10487222515647e-02 4.75618546493590e-02	-3.49449688482548e+00 1.09361827374883e+01	2.11695628516194e-01 -4.00437260860998e-01
1.00046062307284e+09	-2.72815642508051e-01 -4.16037896170639e-01	4.10548152364406e-02 4.75652420578252e-02	-3.49226843768903e+00 1.09348051497732e+01	2.11607985715171e-01 -4.00379067227039e-01
1.00069101416826e+09	-2.72921271497383e-01 -4.15942987264958e-01	4.10609080590464e-02 4.75686301692914e-02	-3.49004052722721e+00 1.09334272524156e+01	2.11520362315424e-01 -4.00320860417477e-01
1.00092145831930e+09	-2.73026872673678e-01 -4.15848056753843e-01	4.10670007146014e-02 4.75720189946875e-02	-3.48781315557433e+00 1.09320490458527e+01	2.11432758373792e-01 -4.00262640392215e-01
1.00115195553817e+09	-2.73132446002212e-01 -4.15753104670621e-01	4.10730931983082e-02 4.75754085449286e-02	-3.48558632486140e+00 1.09306705305182e+01	2.11345173946661e-01 -4.00204407110838e-01
1.00138250583710e+09	-2.73237993207085e-01 -4.15658132082942e-01	4.10791855563467e-02 4.75787986865021e-02	-3.48336000988558e+00 1.09292917010001e+01	2.11257609915203e-01 -4.00146158603672e-01
1.00161310922831e+09	-2.73343513427347e-01 -4.15563137093858e-01	4.10852779038095e-02 4.75821892301224e-02	-3.48113417022773e+00 1.09279125572791e+01	2.11170063516067e-01 -4.00087898634899e-01
1.00184376572403e+09	-2.73449006518704e-01 -4.15468122561474e-01	4.10913699452016e-02 4.75855807316101e-02	-3.47890892050923e+00 1.09265331065481e+01	2.11082539623260e-01 -4.00029621487154e-01
1.00207447533648e+09	-2.73554470797637e-01 -4.15373084660171e-01	4.10974619155263e-02 4.75889728014195e-02	-3.47668417771201e+00 1.09251533483360e+01	2.10995032652511e-01 -3.99971334726985e-01
1.00230523807790e+09	-2.73659907984834e-01 -4.15278024457605e-01	4.11035538609175e-02 4.75923653060139e-02	-3.47445991669225e+00 1.09237732772046e+01	2.10907543486790e-01 -3.99913036383836e-01
1.00253605396052e+09	-2.73765319695605e-01 -4.15182945844011e-01	4.11096455368576e-02 4.75957586568440e-02	-3.47223622468675e+00 1.09223928945325e+01	2.10820077821626e-01 -3.99854718814667e-01
1.00276692299659e+09	-2.73870702488232e-01 -4.15087843961780e-01	4.11157371273855e-02 4.75991526087068e-02	-3.47001304603342e+00 1.09210122056676e+01	2.10732629250105e-01 -3.99796391511556e-01
1.00299784519833e+09	-2.73976057155038e-01 -4.14992720772782e-01	4.11218285078818e-02 4.76025473727777e-02	-3.46779042538084e+00 1.09196312115284e+01	2.10645200647233e-01 -3.99738050633122e-01
1.00322882057800e+09	-2.74081386341839e-01 -4.14897576447989e-01	4.11279198952701e-02 4.76059424709091e-02	-3.46556826782995e+00 1.09182499003377e+01	2.10557790905195e-01 -3.99679696084010e-01
1.00345984914784e+09	-2.74186687332752e-01 -4.14802410882531e-01	4.11340110630705e-02 4.76093384030554e-02	-3.46334667254409e+00 1.09168682847413e+01	2.10470401244842e-01 -3.99621327879737e-01
1.00369093092010e+09	-2.74291959267272e-01 -4.14707222182587e-01	4.11401021264037e-02 4.76127349798191e-02	-3.46112559914379e+00 1.09154863646822e+01	2.10383028906328e-01 -3.99562949779584e-01
1.00392206590702e+09	-2.74397206441544e-01 -4.14612014372865e-01	4.11461930624515e-02 4.76161321236796e-02	-3.45890503777735e+00 1.09141041293682e+01	2.10295678416614e-01 -3.99504554090508e-01
1.00415325412088e+09	-2.74502425317578e-01 -4.14516785421652e-01	4.11522837646143e-02 4.76195301342458e-02	-3.45668504501899e+00 1.09127215909670e+01	2.10208348176273e-01 -3.99446144626916e-01
1.00438449557391e+09	-2.74607615956136e-01 -4.14421532541391e-01	4.11583745188184e-02 4.76229284774605e-02	-3.45446551086622e+00 1.09113387430279e+01	2.10121033442296e-01 -3.99387727018665e-01
1.00461579027839e+09	-2.74712780806294e-01 -4.14326261543793e-01	4.11644649606371e-02 4.76263277651375e-02	-3.45224656479818e+00 1.09099555875256e+01	2.10033742711569e-01 -3.99329289832064e-01
1.00484713824658e+09	-2.74817917348144e-01 -4.14230966683792e-01	4.11705554449756e-02 4.76297274072412e-02	-3.45002808162649e+00 1.09085721233430e+01	2.09946467602152e-01 -3.99270844420306e-01
1.00507853949074e+09	-2.74923025455938e-01 -4.14135650815142e-01	4.11766456764182e-02 4.76331279595994e-02	-3.44781017551989e+00 1.09071883578280e+01	2.09859212966653e-01 -3.99212385074344e-01
1.00530999402313e+09	-2.75028108591808e-01 -4.14040316032363e-01	4.11827357519834e-02 4.76365291444947e-02	-3.44559279422890e+00 1.09058042796856e+01	2.09771980518289e-01 -3.99153907904559e-01
1.00554150185604e+09	-2.75133162396826e-01 -4.13944958381539e-01	4.11888256850217e-02 4.76399310610759e-02	-3.44337595180023e+00 1.09044199005605e+01	2.09684765843380e-01 -3.99095420517663e-01
1.00577306300174e+09	-2.75238190330037e-01 -4.13849579957159e-01	4.11949155725590e-02 4.76433334316445e-02	-3.44115959605016e+00 1.09030352091428e+01	2.09597570658239e-01 -3.99036919024093e-01
1.00600467747249e+09	-2.75343188864202e-01 -4.13754178731674e-01	4.12010053080777e-02 4.76467365556342e-02	-3.43894378340259e+00 1.09016502176094e+01	2.09510393359680e-01 -3.98978407232682e-01
1.00623634528060e+09	-2.75448161455828e-01 -4.13658756798722e-01	4.12070949885771e-02 4.76501401553635e-02	-3.43672846170665e+00 1.09002649146436e+01	2.09423235664637e-01 -3.98919881254768e-01
1.00646806643832e+09	-2.75553105411702e-01 -4.13563314055082e-01	4.12131843876943e-02 4.76535447306109e-02	-3.43451372968785e+00 1.08988793129955e+01	2.09336098776518e-01 -3.98861341104995e-01
1.00669984095796e+09	-2.75658023355693e-01 -4.13467850669404e-01	4.12192737223085e-02 4.76569498033714e-02	-3.43229949286038e+00 1.08974934007940e+01	2.09248981604423e-01 -3.98802786690415e-01
1.00693166885180e+09	-2.75762913508919e-01 -4.13372365645028e-01	4.12253629367950e-02 4.76603555287589e-02	-3.43008578046298e+00 1.08961071843474e+01	2.09161883373749e-01 -3.98744219894657e-01
1.00716355013213e+09	-2.75867775837398e-01 -4.13276859015140e-01	4.12314520264209e-02 4.76637619176404e-02	-3.42787259460910e+00 1.08947206640930e+01	2.09074804140798e-01 -3.98685640677899e-01
1.00739548481125e+09	-2.75972612048431e-01 -4.13181331841731e-01	4.12375410372961e-02 4.76671688366481e-02	-3.42565991033410e+00 1.08933338345843e+01	2.08987744793536e-01 -3.98627047077707e-01
1.00762747290145e+09	-2.76077418625060e-01 -4.13085782100122e-01	4.12436298629814e-02 4.76705765850864e-02	-3.42344778390270e+00 1.08919467080216e+01	2.08900703724088e-01 -3.98568442899399e-01
1.00785951441503e+09	-2.76182199848123e-01 -4.12990213802701e-01	4.12497184805485e-02 4.76739850857846e-02	-3.42123620556295e+00 1.08905592736698e+01	2.08813685456448e-01 -3.98509820467733e-01
1.00809160936429e+09	-2.76286952277833e-01 -4.12894622109873e-01	4.12558070741978e-02 4.76773940930008e-02	-3.41902511991402e+00 1.08891715366693e+01	2.08726683605920e-01 -3.98451189247284e-01
1.00832375776155e+09	-2.76391678451792e-01 -4.12799010004837e-01	4.12618955701478e-02 4.76808036738001e-02	-3.41681454431208e+00 1.08877834921609e+01	2.08639701865755e-01 -3.98392543485764e-01
1.00855595961910e+09	-2.76496374858634e-01 -4.12703375464569e-01	4.12679838619770e-02 4.76842141273923e-02	-3.41460453493028e+00 1.08863951523519e+01	2.08552738624868e-01 -3.98333886986006e-01
1.00878821494927e+09	-2.76601046679292e-01 -4.12607721605423e-01	4.12740720974755e-02 4.76876250321014e-02	-3.41239501278627e+00 1.08850065000242e+01	2.08465796439395e-01 -3.98275213945476e-01
1.00902052376435e+09	-2.76705688666835e-01 -4.12512045377207e-01	4.12801601194198e-02 4.76910368312918e-02	-3.41018606104233e+00 1.08836175532804e+01	2.08378872863906e-01 -3.98216530087509e-01
1.00925288607668e+09	-2.76810305998339e-01 -4.12416349895011e-01	4.12862480755663e-02 4.76944491033236e-02	-3.40797760076889e+00 1.08822282948939e+01	2.08291970455743e-01 -3.98157829611036e-01
1.00948530189857e+09	-2.76914893430925e-01 -4.12320632109885e-01	4.12923358087025e-02 4.76978622914947e-02	-3.40576971506294e+00 1.08808387429720e+01	2.08205086767203e-01 -3.98099118237533e-01
1.00971777124234e+09	-2.77019453568307e-01 -4.12224892189439e-01	4.12984235356452e-02 4.77012759178844e-02	-3.40356230982748e+00 1.08794488855422e+01	2.08118220723316e-01 -3.98040395874249e-01
1.00995029412032e+09	-2.77123987210541e-01 -4.12129132086123e-01	4.13045111317877e-02 4.77046901937999e-02	-3.40135542938558e+00 1.08780587236707e+01	2.08031375179902e-01 -3.97981658694736e-01
1.01018287054483e+09	-2.77228492589895e-01 -4.12033350806036e-01	4.13105985415949e-02 4.77081052742052e-02	-3.39914910279571e+00 1.08766682636924e+01	2.07944549356767e-01 -3.97922908579269e-01
1.01041550052821e+09	-2.77332971406834e-01 -4.11937549408263e-01	4.13166858111604e-02 4.77115210258150e-02	-3.39694330518179e+00 1.08752775001566e+01	2.07857744144155e-01 -3.97864143569540e-01
1.01064818408279e+09	-2.77437422791048e-01 -4.11841726006835e-01	4.13227730556535e-02 4.77149372589853e-02	-3.39473799648757e+00 1.08738864328510e+01	2.07770956800778e-01 -3.97805367411896e-01
1.01088092122091e+09	-2.77541845812669e-01 -4.11745881527364e-01	4.13288600996539e-02 4.77183543291127e-02	-3.39253324790690e+00 1.08724950687574e+01	2.07684189342633e-01 -3.97746578199675e-01
1.01111371195490e+09	-2.77646242170735e-01 -4.11650017028244e-01	4.13349469892652e-02 4.77217721029408e-02	-3.39032903458441e+00 1.08711034024270e+01	2.07597442660768e-01 -3.97687773975761e-01
1.01134655629712e+09	-2.77750610994307e-01 -4.11554130624357e-01	4.13410338396517e-02 4.77251903907885e-02	-3.38812531648665e+00 1.08697114336316e+01	2.07510714015126e-01 -3.97628958484967e-01
1.01157945425989e+09	-2.77854951356879e-01 -4.11458223241005e-01	4.13471204754204e-02 4.77286095480455e-02	-3.38592216473671e+00 1.08683191693759e+01	2.07424005418829e-01 -3.97570129821485e-01
1.01181240585558e+09	-2.77959264956021e-01 -4.11362295935903e-01	4.13532069426824e-02 4.77320294414825e-02	-3.38371955449988e+00 1.08669266042125e+01	2.07337317763658e-01 -3.97511286029347e-01
1.01204541109654e+09	-2.78063550082002e-01 -4.11266344908221e-01	4.13592934764691e-02 4.77354496808413e-02	-3.38151740367725e+00 1.08655337372082e+01	2.07250645517739e-01 -3.97452434633699e-01
1.01227846999511e+09	-2.78167809215154e-01 -4.11170375940792e-01	4.13653797124427e-02 4.77388708785397e-02	-3.37931584064107e+00 1.08641405708583e+01	2.07163997116183e-01 -3.97393564248774e-01
1.01251158256365e+09	-2.78272040645829e-01 -4.11074385233022e-01	4.13714658856523e-02 4.77422926443186e-02	-3.37711478329764e+00 1.08627471042291e+01	2.07077367027754e-01 -3.97334682399575e-01
1.01274474881453e+09	-2.78376245227635e-01 -4.10978371926291e-01	4.13775521620731e-02 4.77457146444209e-02	-3.37491416484462e+00 1.08613533311503e+01	2.06990753356491e-01 -3.97275790911384e-01
1.01297796876010e+09	-2.78480421151226e-01 -4.10882337837236e-01	4.13836381956585e-02 4.77491375787679e-02	-3.37271412520821e+00 1.08599592652576e+01	2.06904160062983e-01 -3.97216886014152e-01
1.01321124241273e+09	-2.78584568385892e-01 -4.10786282998681e-01	4.13897239817213e-02 4.77525614581483e-02	-3.37051466642194e+00 1.08585649070039e+01	2.06817587200147e-01 -3.97157967668695e-01
1.01344456978479e+09	-2.78688690349793e-01 -4.10690209490152e-01	4.13958096171333e-02 4.77559860053870e-02	-3.36831573687959e+00 1.08571702450315e+01	2.06731036500730e-01 -3.97099032006322e-01
1.01367795088864e+09	-2.78792783604331e-01 -4.10594112491011e-01	4.14018952861614e-02 4.77594109741164e-02	-3.36611728144982e+00 1.08557752842453e+01	2.06644501601346e-01 -3.97040088461224e-01
1.01391138573667e+09	-2.78896849796647e-01 -4.10497995863627e-01	4.14079807443772e-02 4.77628367762980e-02	-3.36391938625580e+00 1.08543800265274e+01	2.06557988135616e-01 -3.96981129436253e-01
1.01414487434125e+09	-2.79000888894292e-01 -4.10401859640193e-01	4.14140659870612e-02 4.77662634227163e-02	-3.36172205334790e+00 1.08529844723236e+01	2.06471496156302e-01 -3.96922154892664e-01
1.01437841671476e+09	-2.79104899183321e-01 -4.10305700025498e-01	4.14201512493084e-02 4.77696905229814e-02	-3.35952520081281e+00 1.08515886206144e+01	2.06385020143400e-01 -3.96863172347198e-01
1.01461201286958e+09	-2.79208882312581e-01 -4.10209520880183e-01	4.14262362866511e-02 4.77731184890568e-02	-3.35732891469936e+00 1.08501924733048e+01	2.06298565725641e-01 -3.96804174204849e-01
1.01484566281809e+09	-2.79312838287532e-01 -4.10113319432288e-01	4.14323213849387e-02 4.77765467865864e-02	-3.35513308637123e+00 1.08487960234433e+01	2.06212128226757e-01 -3.96745166067344e-01
1.01507936657269e+09	-2.79416767036839e-01 -4.10017098518727e-01	4.14384062489527e-02 4.77799759715084e-02	-3.35293782860781e+00 1.08473992788683e+01	2.06125712431872e-01 -3.96686142255424e-01
1.01531312414576e+09	-2.79520667686779e-01 -4.09920856259079e-01	4.14444909938978e-02 4.77834058539850e-02	-3.35074310150689e+00 1.08460022392769e+01	2.06039315609405e-01 -3.96627106506454e-01
1.01554693554969e+09	-2.79624541047619e-01 -4.09824594598490e-01	4.14505754952148e-02 4.77868366454209e-02	-3.34854894906052e+00 1.08446049058733e+01	2.05952940597503e-01 -3.96568055006021e-01
1.01578080079689e+09	-2.79728387120119e-01 -4.09728310766491e-01	4.14566600387259e-02 4.77902678114159e-02	-3.34635526274495e+00 1.08432072716590e+01	2.05866582725059e-01 -3.96508993352936e-01
1.01601471989976e+09	-2.79832204995453e-01 -4.09632005686780e-01	4.14627444491289e-02 4.77936997072746e-02	-3.34416211329697e+00 1.08418093437489e+01	2.05780243988403e-01 -3.96449919644934e-01
1.01624869287069e+09	-2.79935994641668e-01 -4.09535679392270e-01	4.14688287217456e-02 4.77971323437531e-02	-3.34196950277245e+00 1.08404111225838e+01	2.05693924441479e-01 -3.96390833842501e-01
1.01648271972209e+09	-2.80039757742897e-01 -4.09439332936504e-01	4.14749129026481e-02 4.78005655877448e-02	-3.33977740653264e+00 1.08390126026900e+01	2.05607624982027e-01 -3.96331733995331e-01
1.01671680046637e+09	-2.80143493394229e-01 -4.09342967242042e-01	4.14809968165285e-02 4.78039997945470e-02	-3.33758589521149e+00 1.08376137912130e+01	2.05521347601099e-01 -3.96272618202838e-01
1.01695093511594e+09	-2.80247201591118e-01 -4.09246579540189e-01	4.14870807492322e-02 4.78074344297423e-02	-3.33539486042664e+00 1.08362146811079e+01	2.05435087635073e-01 -3.96213492061203e-01
1.01718512368321e+09	-2.80350881429807e-01 -4.09150170754185e-01	4.14931645254511e-02 4.78108698485898e-02	-3.33320437279692e+00 1.08348152795160e+01	2.05348847074576e-01 -3.96154353668672e-01
1.01741936618060e+09	-2.80454533747630e-01 -4.09053740026808e-01	4.14992483111549e-02 4.78143057173332e-02	-3.33101436586990e+00 1.08334155801625e+01	2.05262624039595e-01 -3.96095204847719e-01
1.01765366262053e+09	-2.80558160200756e-01 -4.08957291210324e-01	4.15053318618842e-02 4.78177424480980e-02	-3.32882492540522e+00 1.08320155850884e+01	2.05176424142099e-01 -3.96036038016710e-01
1.01788801301542e+09	-2.80661758199842e-01 -4.08860821407290e-01	4.15114152421495e-02 4.78211799947895e-02	-3.32663603824814e+00 1.08306152998653e+01	2.05090243811524e-01 -3.95976858818503e-01
1.01812241737769e+09	-2.80765326868060e-01 -4.08764328741506e-01	4.15174985671613e-02 4.78246181674240e-02	-3.32444766462103e+00 1.08292147241177e+01	2.05004080323654e-01 -3.95917670983432e-01
1.01835687571978e+09	-2.80868870441252e-01 -4.08667817193386e-01	4.15235818138216e-02 4.78280568898548e-02	-3.32225979515631e+00 1.08278138472550e+01	2.04917938202016e-01 -3.95858466884414e-01
1.01859138805411e+09	-2.80972384618385e-01 -4.08571282848400e-01	4.15296649959049e-02 4.78314962597016e-02	-3.32007244335783e+00 1.08264126807396e+01	2.04831813032405e-01 -3.95799254069451e-01
1.01882595439312e+09	-2.81075872770762e-01 -4.08474730575030e-01	4.15357479197032e-02 4.78349365453581e-02	-3.31788566823999e+00 1.08250112207474e+01	2.04745711266314e-01 -3.95740023053189e-01
1.01906057474924e+09	-2.81179331464415e-01 -4.08378155570413e-01	4.15418307696284e-02 4.78383774998964e-02	-3.31569941487179e+00 1.08236094719914e+01	2.04659626559510e-01 -3.95680783242626e-01
1.01929524913492e+09	-2.81282764931455e-01 -4.08281561812141e-01	4.15479135225456e-02 4.78418190472435e-02	-3.31351367390814e+00 1.08222074238919e+01	2.04573563434526e-01 -3.95621527014612e-01
1.01952997756260e+09	-2.81386168875441e-01 -4.08184945388405e-01	4.15539961922669e-02 4.78452612849132e-02	-3.31132845880606e+00 1.08208050879021e+01	2.04487517476892e-01 -3.95562261913189e-01
1.01976476004471e+09	-2.81489545820181e-01 -4.08088309257520e-01	4.15600787049723e-02 4.78487042806275e-02	-3.30914378678726e+00 1.08194024593846e+01	2.04401492361361e-01 -3.95502982224665e-01
1.01999959659371e+09	-2.81592894885672e-01 -4.07991651544889e-01	4.15661611758907e-02 4.78521478443629e-02	-3.30695961816540e+00 1.08179995379283e+01	2.04315485368740e-01 -3.95443691676893e-01
1.02023448722206e+09	-2.81696217744794e-01 -4.07894973300842e-01	4.15722436510682e-02 4.78555918431201e-02	-3.30477592847068e+00 1.08165963180365e+01	2.04229497402158e-01 -3.95384388324067e-01
1.02046943194219e+09	-2.81799511794806e-01 -4.07798277224267e-01	4.15783256141120e-02 4.78590373210923e-02	-3.30259292447862e+00 1.08151928205458e+01	2.04143534283170e-01 -3.95325066550264e-01
1.02070443076658e+09	-2.81902777022292e-01 -4.07701557757520e-01	4.15844076413223e-02 4.78624831984745e-02	-3.30041038829755e+00 1.08137890305808e+01	2.04057586676289e-01 -3.95265737565760e-01
1.02093948370767e+09	-2.82006015946811e-01 -4.07604817856677e-01	4.15904896588390e-02 4.78659295430447e-02	-3.29822833719029e+00 1.08123849435046e+01	2.03971658256297e-01 -3.95206395659809e-01
1.02117459077794e+09	-2.82109228534364e-01 -4.07508057553983e-01	4.15965716620155e-02 4.78693763655398e-02	-3.29604677323993e+00 1.08109805597523e+01	2.03885749078290e-01 -3.95147040793960e-01
1.02140975198984e+09	-2.82212411344329e-01 -4.07411277642244e-01	4.16026532544030e-02 4.78728245093226e-02	-3.29386586130635e+00 1.08095758993481e+01	2.03799862184449e-01 -3.95087671118082e-01
1.02164496735585e+09	-2.82315566904508e-01 -4.07314475488559e-01	4.16087349430554e-02 4.78762729516524e-02	-3.29168539893750e+00 1.08081709422691e+01	2.03713991870287e-01 -3.95028292168202e-01
1.02188023688843e+09	-2.82418695180424e-01 -4.07217653918646e-01	4.16148164328815e-02 4.78797222485224e-02	-3.28950549798268e+00 1.08067656966729e+01	2.03628142876167e-01 -3.94968898284164e-01
1.02211556060006e+09	-2.82521795290745e-01 -4.07120811060376e-01	4.16208978391472e-02 4.78831722098341e-02	-3.28732611882486e+00 1.08053601621126e+01	2.03542312487617e-01 -3.94909493190175e-01
1.02235093850322e+09	-2.82624869754430e-01 -4.07023949865910e-01	4.16269790879766e-02 4.78866229034580e-02	-3.28514727867064e+00 1.08039543339928e+01	2.03456504374748e-01 -3.94850071181440e-01
1.02258637061039e+09	-2.82727915985231e-01 -4.06927064656201e-01	4.16330605344132e-02 4.78900737376384e-02	-3.28296885473663e+00 1.08025482100283e+01	2.03370710294410e-01 -3.94790643504094e-01
1.02282185693404e+09	-2.82830933111409e-01 -4.06830161935291e-01	4.16391414223774e-02 4.78935261581074e-02	-3.28079113641056e+00 1.08011418130442e+01	2.03284941572854e-01 -3.94731197023918e-01
1.02305739748666e+09	-2.82933922793723e-01 -4.06733237168070e-01	4.16452223788010e-02 4.78969789413378e-02	-3.27861387997320e+00 1.07997351220115e+01	2.03199189755559e-01 -3.94671741035761e-01
1.02329299228075e+09	-2.83036885850536e-01 -4.06636292290124e-01	4.16513032791528e-02 4.79004322988688e-02	-3.27643712908618e+00 1.07983281382825e+01	2.03113457661629e-01 -3.94612271740235e-01
1.02352864132878e+09	-2.83139822249266e-01 -4.06539327333535e-01	4.16573841188204e-02 4.79038862414204e-02	-3.27426088580291e+00 1.07969208623017e+01	2.03027745345228e-01 -3.94552789099419e-01
1.02376434464327e+09	-2.83242728565530e-01 -4.06442340301637e-01	4.16634647918384e-02 4.79073410668387e-02	-3.27208520495392e+00 1.07955133063923e+01	2.02942051153863e-01 -3.94493296878499e-01
